Frequency[Hz],S11/dB,S11/phase[deg],S11/unwrapped_phase[deg],S12/dB,S12/phase[deg],S12/unwrapped_phase[deg],S21/dB,S21/phase[deg],S21/unwrapped_phase[deg],S22/dB,S22/phase[deg], S22/unwrapped_phase[deg]
500000000,-12.51091007,51.51189821,51.51189821,-5.910381262,-136.8895427,-136.8895427,-5.505003297,-127.335423,-127.335423,-10.77480133,47.15260997,47.15260997
512500000,-11.96156455,41.58953431,41.58953431,-5.245791668,-140.8058236,-140.8058236,-6.147938556,-134.2994242,-134.2994242,-10.88692391,50.22870714,50.22870714
525000000,-12.77006564,65.49863341,65.49863341,-4.156152344,-140.2844919,-140.2844919,-5.801454421,-139.7859967,-139.7859967,-7.785558975,41.20529389,41.20529389
537500000,-11.49325205,35.64459182,35.64459182,-4.657847692,-138.5351082,-138.5351082,-5.087517577,-145.3678474,-145.3678474,-13.13206992,35.08977498,35.08977498
550000000,-12.78536589,23.73240109,23.73240109,-5.375606346,-139.9876784,-139.9876784,-4.539450316,-145.8683346,-145.8683346,-13.30742981,31.25367604,31.25367604
562500000,-13.70874863,27.51945918,27.51945918,-5.522472498,-146.7213705,-146.7213705,-4.310838251,-144.2421423,-144.2421423,-13.7828637,20.72364275,20.72364275
575000000,-15.56807879,11.24311938,11.24311938,-5.186149625,-152.3357323,-152.3357323,-5.101099933,-145.0955619,-145.0955619,-13.84876661,16.56587588,16.56587588
587500000,-14.84815619,4.157753873,4.157753873,-4.352444753,-155.2192113,-155.2192113,-5.420900089,-152.0568885,-152.0568885,-14.93918782,20.57317456,20.57317456
600000000,-15.14708929,5.344485982,5.344485982,-4.012150144,-154.6466541,-154.6466541,-4.877867279,-158.0631808,-158.0631808,-17.04747058,-3.516863439,-3.516863439
612500000,-16.99120234,5.790329323,5.790329323,-4.210808158,-157.3564811,-157.3564811,-4.322229513,-162.5481859,-162.5481859,-18.01668484,-1.950302824,-1.950302824
625000000,-19.29750346,-21.30814138,-21.30814138,-4.241064335,-163.792376,-163.792376,-3.745162126,-163.9995622,-163.9995622,-18.23220318,-13.77995314,-13.77995314
637500000,-20.35692321,-23.58251435,-23.58251435,-3.818402426,-167.9990016,-167.9990016,-3.824107325,-166.8316984,-166.8316984,-18.83989833,-16.73537896,-16.73537896
650000000,-21.09170317,-26.53463815,-26.53463815,-3.729932431,-171.3887125,-171.3887125,-3.688745913,-171.6449265,-171.6449265,-21.7313743,-44.06578939,-44.06578939
662500000,-21.70828399,-39.07089723,-39.07089723,-3.519837718,-173.7408741,-173.7408741,-3.534665943,-175.3431885,-175.3431885,-21.51249304,-50.39984766,-50.39984766
675000000,-23.2800841,-51.02211456,-51.02211456,-3.405644574,-176.9506846,-176.9506846,-3.438347238,-177.398475,-177.398475,-24.37142839,-55.90573075,-55.90573075
687500000,-22.74856159,-90.03733963,-90.03733963,-3.197867952,177.8673749,-182.1326251,-3.284610561,178.0989317,-181.9010683,-25.6922999,-70.06604177,-70.06604177
700000000,-26.62195332,-107.200257,-107.200257,-3.075251496,173.9103121,-186.0896879,-3.311686533,173.9910554,-186.0089446,-21.46658375,-112.8947302,-112.8947302
712500000,-24.09746781,-141.6182805,-141.6182805,-2.884303689,170.4069583,-189.5930417,-3.065982742,168.1059878,-191.8940122,-25.87752875,-95.16724293,-95.16724293
725000000,-23.94704963,-147.130046,-147.130046,-2.762716747,164.9415159,-195.0584841,-2.487601306,163.5467528,-196.4532472,-27.26748827,-114.1903409,-114.1903409
737500000,-24.62443219,-176.2248235,-176.2248235,-2.815745118,158.8671569,-201.1328431,-2.394969882,161.7472993,-198.2527007,-24.88140308,-162.1096445,-162.1096445
750000000,-21.15297719,166.0688537,-193.9311463,-2.178324059,151.3187363,-208.6812637,-2.621828711,157.1727023,-202.8272977,-23.33399457,-164.5500795,-164.5500795
762500000,-18.16291841,138.8497211,-221.1502789,-1.857019595,150.62052,-209.37948,-2.588248677,149.7212999,-210.2787001,-25.97508015,-153.0095815,-153.0095815
775000000,-16.97646133,141.9358565,-218.0641435,-2.35282481,148.2429563,-211.7570437,-2.283028017,142.9056561,-217.0943439,-20.51154901,130.014725,-229.985275
787500000,2.556367919,-147.8411204,-147.8411204,-5.898155698,-77.05616031,-77.05616031,-3.282677266,146.6826343,-213.3173657,-10.34464049,156.8970685,-203.1029315
800000000,-17.3891117,100.7775277,-259.2224723,-3.031657935,130.8985693,-229.1014307,-1.635831463,136.9878855,-223.0121145,-18.76478998,95.80082321,-264.1991768
812500000,-15.45615142,99.44908102,-260.550919,-2.362957593,125.9977021,-234.0022979,-2.392975048,136.5595751,-223.4404249,-19.02133128,113.9273639,-246.0726361
825000000,-15.23133474,89.50796242,-270.4920376,-1.762472856,125.7174672,-234.2825328,-3.060560678,130.0355191,-229.9644809,-17.9754323,82.68757144,-277.3124286
837500000,-15.56624376,90.03435921,-269.9656408,-1.864221953,127.9345911,-232.0654089,-3.096464534,119.5668036,-240.4331964,-14.17965591,84.17094197,-275.829058
850000000,-16.36473247,92.49302859,-267.5069714,-2.594838135,126.9384626,-233.0615374,-2.381475329,112.8542412,-247.1457588,-15.97283738,68.09797284,-291.9020272
862500000,-15.06135439,94.8515491,-265.1484509,-3.138439767,119.301191,-240.698809,-1.393126651,112.0557961,-247.9442039,-13.88752036,76.39059458,-283.6094054
875000000,-15.35894475,56.5955588,-303.4044412,-2.961041268,107.9999034,-252.0000966,-1.457989072,113.4534315,-246.5465685,-12.27922485,62.28746265,-297.7125374
887500000,-14.19133137,53.23466898,-306.765331,-1.962946982,101.2356721,-258.7643279,-2.18674455,112.1954679,-247.8045321,-16.23446982,59.58098754,-300.4190125
900000000,-13.87638903,58.25902194,-301.7409781,-1.13003415,100.5589363,-259.4410637,-3.23050354,103.7996161,-256.2003839,-12.02778997,50.48924863,-309.5107514
912500000,-12.60404953,45.80383724,-314.1961628,-1.520701678,101.2065653,-258.7934347,-3.372280446,93.61115915,-266.3888408,-13.43101815,40.54025997,-319.45974
925000000,-12.77250341,41.09096391,-318.9090361,-2.674467862,96.31087885,-263.6891211,-2.69212298,84.36092561,-275.6390744,-12.17046631,36.52365478,-323.4763452
937500000,-12.41352067,42.92813085,-317.0718691,-3.308488871,86.55221419,-273.4477858,-1.789750896,82.05027667,-277.9497233,-11.30264805,40.63189837,-319.3681016
950000000,-12.81320351,21.1376519,-338.8623481,-3.103567503,74.29018492,-285.7098151,-1.830295085,84.97484877,-275.0251512,-10.66023291,27.03800764,-332.9619924
962500000,-12.57516878,18.76138962,-341.2386104,-2.390722902,70.00115976,-289.9988402,-2.499742686,85.36046954,-274.6395305,-12.23324377,26.34295524,-333.6570448
975000000,-11.36983511,14.4452608,-345.5547392,-1.753381573,70.92110972,-289.0788903,-3.837045964,79.68044684,-280.3195532,-12.74224103,27.43837008,-332.5616299
987500000,-12.70247514,14.0710819,-345.9289181,-2.321300044,74.17897741,-285.8210226,-4.138578228,69.85783248,-290.1421675,-11.0182356,25.31167292,-334.6883271
1000000000,-11.78686205,10.1050669,-349.8949331,-3.654262176,73.32725981,-286.6727402,-3.583612495,59.21500936,-300.7849906,-11.58744434,25.30013021,-334.6998698
1012500000,-11.28476183,-0.027490029,-360.02749,-4.596497226,65.27334389,-294.7266561,-2.792832258,55.31373242,-304.6862676,-10.59697742,18.63953842,-341.3604616
1025000000,-12.23984734,-9.090070303,-369.0900703,-4.666665806,54.9070722,-305.0929278,-2.34972164,58.01033307,-301.9896669,-11.51940185,13.08470171,-346.9152983
1037500000,-11.81229806,-7.274741548,-367.2747415,-3.779581736,48.69866666,-311.3013333,-2.584076955,59.923831,-300.076169,-10.4276135,17.13453025,-342.8654698
1050000000,-9.235402876,-5.564595147,-365.5645951,-2.723620396,46.76092735,-313.2390727,-3.20760252,55.46995921,-304.5300408,-9.407038075,71.21792389,-288.7820761
1062500000,-11.82840651,-11.2456716,-371.2456716,-2.727403947,49.86962586,-310.1303741,-4.154326746,52.32078702,-307.679213,-11.87757828,2.324100156,-357.6758998
1075000000,-11.01690933,-13.87515613,-373.8751561,-3.048232809,50.6532109,-309.3467891,-4.294540396,42.9709986,-317.0290014,-13.34020254,-9.949642763,-369.9496428
1087500000,-11.60800214,-20.60191556,-380.6019156,-3.839547487,44.70104679,-315.2989532,-3.96382626,36.78612932,-323.2138707,-12.35313493,0.869908676,-359.1300913
1100000000,-12.22748138,-20.89410602,-380.894106,-4.021254176,37.84767547,-322.1523245,-3.358469976,34.18057341,-325.8194266,-13.47317636,-12.6278829,-372.6278829
1112500000,-12.5856718,-29.32328928,-389.3232893,-3.483283853,31.09983709,-328.9001629,-3.185447003,34.22931646,-325.7706835,-15.31733942,-26.98333807,-386.9833381
1125000000,-12.82735791,-30.74630799,-390.746308,-3.72852244,29.69876119,-330.3012388,-3.686107272,27.68129454,-332.3187055,-16.26627569,-18.64921606,-378.6492161
1137500000,-12.91763341,-34.03080663,-394.0308066,-3.395854516,23.2628211,-336.7371789,-3.310005776,25.91150321,-334.0884968,-16.27452694,-33.1378606,-393.1378606
1150000000,-13.24669209,-36.37969515,-396.3796952,-3.335551462,20.17704218,-339.8229578,-3.532760739,24.6606226,-335.3393774,-14.90180829,-47.16219806,-407.1621981
1162500000,-14.33288206,-39.87053152,-399.8705315,-3.252412498,17.25600233,-342.7439977,-3.877048294,21.62188181,-338.3781182,-14.32124625,-40.78094265,-400.7809427
1175000000,-15.9151143,-49.45246096,-409.452461,-3.438613924,15.70206913,-344.2979309,-4.232487954,15.7214155,-344.2785845,-17.42382544,-56.68590245,-416.6859025
1187500000,-14.88467868,-61.4353734,-421.4353734,-3.975369036,11.75118737,-348.2488126,-4.17959314,10.92138547,-349.0786145,-17.73878393,-69.56798469,-429.5679847
1200000000,-15.00617177,-49.91538492,-409.9153849,-4.174520369,8.759414986,-351.240585,-3.965951395,6.482121739,-353.5178783,-17.08625936,-71.28180411,-431.2818041
1212500000,-14.99808125,-69.4054396,-429.4054396,-4.291568325,4.042746864,-355.9572531,-3.926113936,2.579820199,-357.4201798,-13.96946899,-82.80577293,-442.8057729
1225000000,-15.43297103,-61.80570262,-421.8057026,-4.138400065,-0.632400915,-360.6324009,-3.842041708,1.045932412,-358.9540676,-15.10484383,-73.4575974,-433.4575974
1237500000,-17.90074147,-80.71024193,-440.7102419,-4.067525514,-2.274909831,-362.2749098,-4.10331744,0.72472952,-359.2752705,-16.02793146,-76.38521238,-436.3852124
1250000000,-17.10525547,-86.72167723,-446.7216772,-4.005014429,-4.767566404,-364.7675664,-4.213986057,-2.16044988,-362.1604499,-15.56779375,-85.0404674,-445.0404674
1262500000,-16.2896293,-95.46381784,-455.4638178,-4.120712568,-5.743706076,-365.7437061,-4.415002943,-5.539055745,-365.5390557,-17.8176623,-100.3349701,-460.3349701
1275000000,-16.23565198,-101.5097708,-461.5097708,-4.09208346,-9.721402983,-369.721403,-4.330230985,-8.577458089,-368.5774581,-16.37693161,-97.19329764,-457.1932976
1287500000,-16.22098905,-105.5068799,-465.5068799,-4.563224361,-13.03504364,-373.0350436,-4.368549737,-13.38224846,-373.3822485,-14.28184229,-103.8938124,-463.8938124
1300000000,-16.7220367,-114.5756333,-474.5756333,-4.756232045,-17.27080153,-377.2708015,-4.202641585,-17.72046662,-377.7204666,-14.65843263,-89.14165679,-449.1416568
1312500000,-15.89039142,-117.7340294,-477.7340294,-4.517701273,-20.32479199,-380.324792,-3.836080932,-21.8207494,-381.8207494,-16.14670577,-94.10673356,-454.1067336
1325000000,-15.37946658,-119.879462,-479.879462,-4.280546883,-25.16664044,-385.1666404,-3.613368872,-23.50404942,-383.5040494,-15.31035962,-102.838798,-462.838798
1337500000,-13.60074859,-128.6053703,-488.6053703,-3.460427825,-24.13363755,-384.1336376,-3.764403395,-22.43059027,-382.4305903,-15.12736139,-121.3510514,-481.3510514
1350000000,-14.77230583,-115.7321783,-475.7321783,-3.214422316,-22.73060061,-382.7306006,-4.388079803,-24.62827251,-384.6282725,-14.28008725,-119.0582043,-479.0582043
1362500000,-15.64242569,-124.9110037,-484.9110037,-4.134796254,-24.93043288,-384.9304329,-4.751561121,-30.18743439,-390.1874344,-13.59413988,-100.8958989,-460.8958989
1375000000,-14.70999458,-131.7384348,-491.7384348,-4.553848411,-33.32945905,-393.3294591,-4.458039524,-38.11822177,-398.1182218,-17.87800733,-117.9936787,-477.9936787
1387500000,-14.1970041,-148.658179,-508.658179,-4.032709769,-40.99868689,-400.9986869,-3.538132662,-40.10291826,-400.1029183,-14.30824665,-120.8817064,-480.8817064
1400000000,-13.05469853,-142.5610443,-502.5610443,-2.681369139,-44.12358828,-404.1235883,-2.974146464,-38.25638349,-398.2563835,-14.80432498,-129.046949,-489.046949
1412500000,-12.67864335,-146.3071298,-506.3071298,-2.315090069,-42.02413246,-402.0241325,-3.464409256,-36.36672802,-396.366728,-12.77291626,-129.8889841,-489.8889841
1425000000,-13.72341937,-145.3249451,-505.3249451,-3.260686918,-43.42655951,-403.4265595,-4.259476767,-42.32881947,-402.3288195,-14.82930441,-141.1613144,-501.1613144
1437500000,-12.38308097,-155.3298132,-515.3298132,-4.05115827,-49.41741628,-409.4174163,-4.107458267,-52.06770252,-412.0677025,-14.99807314,-146.8728894,-506.8728894
1450000000,-12.02121252,-159.2702414,-519.2702414,-4.021987973,-61.41944464,-421.4194446,-3.121653882,-60.36825816,-420.3682582,-15.65844351,-137.7470942,-497.7470942
1462500000,-12.5823126,-160.2656024,-520.2656024,-2.762713044,-65.6485001,-425.6485001,-1.974628728,-60.56360038,-420.5636004,-16.22579366,-144.1170621,-504.1170621
1475000000,-12.32079709,-155.51609,-515.51609,-2.183723475,-61.96749918,-421.9674992,-1.809922141,-57.32657263,-417.3265726,-15.20336044,-145.1073501,-505.1073501
1487500000,-14.74206574,-175.3795315,-535.3795315,-2.638474745,-56.78261649,-416.7826165,-2.339882976,-56.61368731,-416.6136873,-13.87363492,-159.6002377,-519.6002377
1500000000,-17.34613627,-175.9985054,-535.9985054,-3.589599657,-59.1997032,-419.1997032,-3.42434952,-65.11639119,-425.1163912,-19.47751344,-144.4370526,-504.4370526
1512500000,-13.70307294,-169.925668,-529.925668,-4.295876168,-67.85503555,-427.8550356,-3.624726664,-77.15873924,-437.1587392,-12.84980284,-162.4236232,-522.4236232
1525000000,-15.85141383,179.6739398,-540.3260602,-3.507126188,-76.78062889,-436.7806289,-2.901121698,-85.74870539,-445.7487054,-15.27970911,178.284308,-541.715692
1537500000,-14.37013796,-176.5760002,-536.5760002,-2.122382479,-80.27555582,-440.2755558,-1.903832592,-86.42809863,-446.4280986,-18.56507633,-172.8672304,-532.8672304
1550000000,-16.57661256,174.0850368,-545.9149632,-1.104210955,-80.04654706,-440.0465471,-1.666636321,-84.89492896,-444.894929,-18.89588998,126.7743583,-593.2256417
1562500000,-18.14890675,152.6328836,-567.3671164,-0.75673582,-81.16353743,-441.1635374,-1.901276968,-83.01652929,-443.0165293,-19.56319071,118.5068886,-601.4931114
1575000000,-7.50942461,-105.5068956,-465.5068956,-1.381807244,-44.03725604,-404.037256,-6.966878108,-84.39012525,-444.3901253,-0.611823417,97.33349865,-622.6665014
1587500000,-17.60184949,130.348977,-589.651023,-1.831578218,-91.93948349,-451.9394835,-2.652295158,-97.00415778,-457.0041578,-12.86315104,140.6906299,-579.3093701
1600000000,-17.19880839,141.9658269,-578.0341731,-1.885781221,-102.3369532,-462.3369532,-1.844159705,-106.7713272,-466.7713272,-12.22382101,143.9484161,-576.0515839
1612500000,-19.83947287,-160.5992822,-520.5992822,-0.599390068,-112.4715175,-472.4715175,-0.84266181,-114.9508499,-474.9508499,-14.38247191,124.3042915,-595.6957085
1625000000,-31.9210621,125.939027,-594.060973,-0.150838626,-116.9715551,-476.9715551,0.266233013,-115.2646228,-475.2646228,-18.94436318,135.8274023,-584.1725977
1637500000,-19.75195755,60.51519558,-659.4848044,0.081690755,-118.324183,-478.324183,0.15019409,-115.5615922,-475.5615922,-18.49321046,98.8805821,-621.1194179
1650000000,-19.49816905,87.95795197,-632.042048,-0.416918517,-117.3479695,-477.3479695,-0.73090724,-118.4342088,-478.4342088,-16.374809,113.0900037,-606.9099963
1662500000,-14.22821058,90.60298049,-629.3970195,-1.713667522,-125.2962569,-485.2962569,-1.620973678,-125.7492171,-485.7492171,-21.0158257,112.6223385,-607.3776615
1675000000,-16.90741334,69.09663854,-650.9033615,-1.612290284,-135.3968276,-495.3968276,-2.044785447,-135.8317244,-495.8317244,-15.99283589,78.73229747,-641.2677025
1687500000,-16.7398979,63.34445228,-656.6555477,-1.480404249,-143.7597098,-503.7597098,-1.486519189,-142.9475995,-502.9475995,-18.62894588,66.5643755,-653.4356245
1700000000,-16.3609864,54.7299184,-665.2700816,-0.953760373,-147.6845901,-507.6845901,-1.130842939,-145.526911,-505.526911,-16.57613751,56.58921939,-663.4107806
1712500000,-15.40367887,59.83880188,-660.1611981,-0.991681244,-147.8344685,-507.8344685,-0.902123403,-147.1092469,-507.1092469,-15.83328446,78.11586656,-641.8841334
1725000000,-15.90690998,44.97345803,-675.026542,-1.422012838,-147.9603705,-507.9603705,-1.431574562,-149.5673045,-509.5673045,-20.33638487,83.98277251,-636.0172275
1737500000,-18.91740551,76.58612441,-643.4138756,-2.10320635,-150.958747,-510.958747,-1.824265782,-153.39417,-513.39417,-19.56272779,71.88350984,-648.1164902
1750000000,-19.2389977,52.75820923,-667.2417908,-2.3695589,-160.4292022,-520.4292022,-2.149139218,-160.7047808,-520.7047808,-17.47913499,90.91554202,-629.084458
1762500000,-19.99904568,34.63850103,-685.361499,-1.719208263,-166.4880995,-526.4880995,-2.012063411,-167.9659196,-527.9659196,-18.38178966,92.96277986,-627.0372201
1775000000,-19.97152061,48.24892117,-671.7510788,-1.673235223,-171.3456033,-531.3456033,-1.65843854,-172.8351695,-532.8351695,-24.10958025,104.1941395,-615.8058605
1787500000,-21.52372288,43.18860035,-676.8113996,-1.343231485,-172.518768,-532.518768,-1.337387322,-175.5011797,-535.5011797,-24.68824592,125.3726882,-594.6273118
1800000000,-34.92205335,54.09001649,-665.9099835,-1.513134773,-176.3450489,-536.3450489,-1.521301661,-177.8068709,-537.8068709,-25.2452948,101.0808861,-618.9191139
1812500000,-26.13047783,109.326416,-610.673584,-2.004593379,178.429277,-541.570723,-1.796263563,179.1721886,-540.8278114,-29.17605647,146.9860348,-573.0139652
1825000000,-27.91500609,145.8522584,-574.1477416,-2.272619131,172.0927542,-547.9072458,-2.261324865,176.3090552,-543.6909448,-31.96003749,-156.843288,-516.843288
1837500000,-30.3598463,-168.4217417,-528.4217417,-2.091106193,169.2778876,-550.7221124,-2.377411268,170.0365697,-549.9634303,-24.73425891,174.5650991,-545.4349009
1850000000,-20.78673022,-178.8555945,-538.8555945,-2.230802002,164.4708035,-555.5291965,-2.478102443,168.6003229,-551.3996771,-23.95850166,-171.7731691,-531.7731691
1862500000,-17.58303671,-175.8908271,-535.8908271,-2.959953468,162.7172222,-557.2827778,-2.975094755,164.845169,-555.154831,-20.72934783,-128.5737946,-488.5737946
1875000000,-15.54857526,-175.2433201,-535.2433201,-2.879728784,157.6938361,-562.3061639,-2.948734525,160.9985949,-559.0014051,-17.98001007,-144.5255961,-504.5255961
1887500000,-15.75782066,177.0652213,-542.9347787,-2.915835829,150.6864235,-569.3135765,-2.91041419,152.5883948,-567.4116052,-16.19025932,-168.9076597,-528.9076597
1900000000,-14.26592437,173.2988888,-546.7011112,-2.584195331,151.2956391,-568.7043609,-2.590061174,150.9997243,-569.0002757,-15.5120269,-170.6653516,-530.6653516
1912500000,-12.98704529,171.628401,-548.371599,-2.202477629,151.0272284,-568.9727716,-2.429471902,148.4454048,-571.5545952,-16.33048266,-177.1507367,-537.1507367
1925000000,-11.52696269,167.355711,-552.644289,-2.645199597,149.680552,-570.319448,-2.886846266,147.1614061,-572.8385939,-17.17315831,-176.6519366,-536.6519366
1937500000,-10.0296089,162.9285031,-557.0714969,-3.201750294,146.3075595,-573.6924405,-3.020992393,141.924701,-578.075299,-12.30559311,171.7386509,-548.2613491
1950000000,-9.589239878,167.5689106,-552.4310894,-3.777173728,138.7181281,-581.2818719,-3.610512999,136.8074655,-583.1925345,-13.95248051,175.190355,-544.809645
1962500000,-9.114273963,159.7813503,-560.2186497,-3.797787959,129.7746686,-590.2253314,-3.60402963,130.3236456,-589.6763544,-12.09232584,-171.1142773,-531.1142773
1975000000,-11.49157813,168.3268672,-551.6731328,-2.869789876,126.3648807,-593.6351193,-3.210048418,121.6754613,-598.3245387,-12.52192818,-178.7008366,-538.7008366
1987500000,-9.290491003,161.7096679,-558.2903321,-2.138082462,128.840535,-591.159465,-2.474039776,121.2391845,-598.7608155,-13.76995675,150.7925792,-569.2074208
