Frequency[Hz],S11/dB,S11/phase[deg],S11/unwrapped_phase[deg],S12/dB,S12/phase[deg],S12/unwrapped_phase[deg],S21/dB,S21/phase[deg],S21/unwrapped_phase[deg],S22/dB,S22/phase[deg], S22/unwrapped_phase[deg]
500000000,-11.653459655905017,54.499554353546934,54.499554353546934,-5.943960925867429,-137.66933734771095,-137.66933734771095,-5.531661004339755,-126.88864014085739,-126.88864014085739,-9.577408959710294,43.105588549041755,43.105588549041755
512500000,-11.760257669491722,40.984275460069796,40.984275460069796,-5.241815617250378,-140.3867589608068,-140.3867589608068,-6.019026553247865,-134.95250852494533,-134.95250852494533,-11.19072465097172,47.28261273068708,47.28261273068708
525000000,-13.228600879341814,1.0067692537268504,1.0067692537268504,-4.246717225197213,-142.11383459362065,-142.11383459362065,-5.884340439101242,-142.85406985094684,-142.85406985094684,-9.444409329013864,52.63019680688317,52.63019680688317
537500000,-12.453147180732458,33.24357233672109,33.24357233672109,-4.7834271732934495,-138.90599335025183,-138.90599335025183,-5.165207932362258,-144.93113289120464,-144.93113289120464,-12.730105383560378,39.24022673994353,39.24022673994353
550000000,-12.734267319275187,27.035776938944448,27.035776938944448,-5.272382816996403,-140.50836105702552,-140.50836105702552,-4.566418067350185,-145.51664533832928,-145.51664533832928,-13.86550503110257,30.786116299466435,30.786116299466435
562500000,-14.414800942057886,21.582380610812905,21.582380610812905,-5.664200725264355,-146.21731609984505,-146.21731609984505,-4.3694821825718675,-144.31799577493996,-144.31799577493996,-12.888312189944388,16.930596312823223,16.930596312823223
575000000,-16.048696409452692,8.400740356938801,8.400740356938801,-5.141578293837565,-153.07560675928215,-153.07560675928215,-5.114021968290543,-144.97523953406707,-144.97523953406707,-12.975456542716032,21.285341114185535,21.285341114185535
587500000,-14.09838554104268,3.922883471772203,3.922883471772203,-4.5264767549991145,-155.33415502028174,-155.33415502028174,-5.570316217214289,-152.29497820887647,-152.29497820887647,-15.008628556772427,18.644434567614592,18.644434567614592
600000000,-14.916467112862275,6.99778979320149,6.99778979320149,-4.0471527316210185,-155.467312702389,-155.467312702389,-4.893327800287585,-158.3702775821186,-158.3702775821186,-17.285482470888933,-1.2855216418970152,-1.2855216418970152
612500000,-17.022495689992287,10.087833402251801,10.087833402251801,-4.121883958732781,-157.83864771021135,-157.83864771021135,-4.236899005658904,-162.4859429534072,-162.4859429534072,-17.693410942110912,-5.930534291102453,-5.930534291102453
625000000,-19.077070833867403,-13.23946919748285,-13.23946919748285,-4.235686534459436,-163.5691201852792,-163.5691201852792,-3.978750051502412,-164.85096930144664,-164.85096930144664,-18.463600112529146,-4.331202108500333,-4.331202108500333
637500000,-19.1891313471787,-22.128810006273337,-22.128810006273337,-3.948063046714443,-167.8348626859323,-167.8348626859323,-3.7941303283435426,-167.1034132234286,-167.1034132234286,-20.572882001812438,-18.545342121086808,-18.545342121086808
650000000,-21.548711893142286,-21.16477361896644,-21.16477361896644,-3.6999746563058262,-171.4317510000057,-171.4317510000057,-3.6321407874363314,-171.29332420986537,-171.29332420986537,-20.37804703676402,-49.38044249804697,-49.38044249804697
662500000,-22.682961914139558,-38.86332479559235,-38.86332479559235,-3.5132164678996105,-173.74464636662628,-173.74464636662628,-3.49388483117178,-175.0376913076972,-175.0376913076972,-21.46315720304103,-47.86751471733134,-47.86751471733134
675000000,-25.25709513276837,-47.38059292854321,-47.38059292854321,-3.4196620127144817,-177.80155553598183,-177.80155553598183,-3.2786684151517203,-177.3788304420965,-177.3788304420965,-18.202715763009895,-45.757376513414265,-45.757376513414265
687500000,-24.88687826379205,-99.61526456827885,-99.61526456827885,-3.184495711092711,177.02473682125088,-182.97526317874912,-3.338355243814097,178.69838406346565,-181.30161593653435,-29.016323411796016,-51.47386719227562,-51.47386719227562
700000000,-25.9978455742677,-107.74442239695762,-107.74442239695762,-3.1056985522857783,174.1388436390393,-185.8611563609607,-3.2862549373456673,174.41445282286125,-185.58554717713875,-25.155068038620154,-108.26043545316814,-108.26043545316814
712500000,-23.412330813662095,-152.89346591654396,-152.89346591654396,-2.8587282598580757,169.82522206428112,-190.17477793571888,-3.2127078521431898,168.47438257004956,-191.52561742995044,-27.197387771724117,-113.26059093032758,-113.26059093032758
725000000,-23.706084678153047,-157.91850657620617,-157.91850657620617,-2.8945639877610536,165.07555502074712,-194.92444497925288,-2.5541528689158404,163.92288542771627,-196.07711457228373,-25.308153081435126,-140.67615495929726,-140.67615495929726
737500000,-22.67381522457196,-175.54624569649036,-175.54624569649036,-2.7516484983458107,158.07052963445142,-201.92947036554858,-2.47164749474023,161.58878540446855,-198.41121459553145,-26.546521544744927,-159.86534890950426,-159.86534890950426
750000000,-22.351766568992353,162.0226585113171,-197.9773414886829,-2.275097803914286,151.71026799195624,-208.28973200804376,-2.5807514900854516,156.21663187322267,-203.78336812677733,-22.13354939536125,-161.49079973274854,-161.49079973274854
762500000,-18.115510615632452,140.75119329456805,-219.24880670543195,-1.8775726185142017,149.83359554472602,-210.16640445527398,-2.630481287143947,149.42195166925342,-210.57804833074658,-24.96864719484561,-150.61934917207472,-150.61934917207472
775000000,-16.381535525566825,138.21552079284427,-221.78447920715573,-2.343935576229666,147.98083670112138,-212.01916329887862,-2.1338942587437586,143.08375818731358,-216.91624181268642,-22.5900420699333,127.73814550543219,-232.2618544945678
787500000,-5.025123050725969,-166.4903361998063,-166.4903361998063,-20.160722767517104,-9.482895410833525,-369.4828954108335,-11.869637912131683,-154.00035660464152,-154.00035660464152,-19.70991214791848,-83.70548042222376,-83.70548042222376
800000000,-17.84168406589869,112.41881363559354,-247.58118636440645,-3.1040727120866274,131.53343285193296,-228.46656714806704,-1.6626389299347488,138.11917371694574,-221.88082628305426,-18.164065955986562,105.44457405721782,-254.55542594278216
812500000,-15.706434945413843,105.12710769835233,-254.87289230164765,-2.427079251838729,125.23349302384412,-234.76650697615588,-2.4314801080743775,136.3354152634227,-223.6645847365773,-19.047940276697584,98.87231593164884,-261.1276840683512
825000000,-15.98907810351511,87.33064268926904,-272.66935731073096,-1.7884944239756149,125.52053317640485,-234.47946682359515,-3.1150465006472876,130.2317571570756,-229.7682428429244,-17.987220780805334,93.68191857278785,-266.3180814272122
837500000,-15.531063143633235,91.36236971883466,-268.63763028116534,-1.7819161819807352,127.85398837519166,-232.14601162480835,-3.1652073418225686,119.56740081824466,-240.43259918175534,-15.107102636534933,83.86944985415835,-276.13055014584165
850000000,-15.573211279245886,87.11346107881214,-272.8865389211879,-2.6813093822742347,125.53723582203949,-234.4627641779605,-2.440017479281532,112.52834692627417,-247.47165307372583,-15.7394168351803,63.42383442991766,-296.57616557008237
862500000,-14.58188359393937,94.46070305862925,-265.53929694137076,-3.215588605336466,119.00084746798208,-240.99915253201792,-1.3256519937041833,112.22564009690969,-247.77435990309033,-15.281701660489876,77.36509692155755,-282.63490307844245
875000000,-15.176471695704084,55.59071710417838,-304.4092828958216,-3.0199882157266833,108.29667554548315,-251.70332445451686,-1.4957810145743953,112.9686925533363,-247.0313074466637,-12.666949175167446,62.79783340163199,-297.202166598368
887500000,-13.866023240413195,52.33086779066447,-307.66913220933554,-1.94743514639609,101.13129242060374,-258.86870757939624,-2.1782195364834833,111.77147661191837,-248.2285233880816,-14.512895788776525,66.7054375584084,-293.2945624415916
900000000,-13.956547667686888,54.38205459275918,-305.6179454072408,-1.0836248718567862,100.49794586350403,-259.502054136496,-3.2326965365844025,104.09228971435365,-255.90771028564635,-12.056545214091631,52.26468842399496,-307.735311576005
912500000,-12.187487390727991,41.830659873301975,-318.16934012669805,-1.513753435533306,100.62435833771741,-259.3756416622826,-3.4031174823844617,93.50234076413156,-266.49765923586847,-12.374441379669364,43.91732620049476,-316.08267379950524
925000000,-13.401349569862088,38.808219090071326,-321.1917809099287,-2.6838888647344095,96.05610143520826,-263.94389856479177,-2.7308871813481472,84.55487110774804,-275.44512889225194,-11.861271661177295,32.03760684613142,-327.96239315386856
937500000,-12.431966305845137,37.99286238123039,-322.0071376187696,-3.310764821158819,85.7846271249355,-274.21537287506453,-1.836964584475306,82.17455479629959,-277.8254452037004,-10.228075238415851,40.96193951048532,-319.0380604895147
950000000,-11.724611637395025,20.152290595364406,-339.84770940463557,-3.1538330641607675,75.23822324543995,-284.76177675456006,-1.7612194649978221,84.00509350788288,-275.99490649211714,-11.025579087470883,32.24747879485859,-327.7525212051414
962500000,-12.301830660916306,19.298118612264695,-340.7018813877353,-2.3664849092260782,70.06565328533387,-289.93434671466616,-2.527455219084931,85.45607413443115,-274.54392586556884,-12.66581838662621,35.73120405636565,-324.26879594363436
975000000,-11.311649140145406,12.323273971062957,-347.676726028937,-1.8026500827169667,71.78006317605525,-288.21993682394475,-3.769232384225969,79.7274770207396,-280.27252297926043,-12.771341448002076,31.285582500136933,-328.7144174998631
987500000,-12.6992081239978,11.647289445551724,-348.35271055444827,-2.290914008627763,73.2972349237761,-286.7027650762239,-4.130724477980899,69.18888102329909,-290.8111189767009,-11.438342935339918,18.433202848877617,-341.5667971511224
1000000000,-11.731044613428105,12.188755191423127,-347.8112448085769,-3.7273451538608726,73.17822422031988,-286.82177577968014,-3.726766935722214,59.33030555194445,-300.66969444805557,-11.230584311844138,15.946995896147696,-344.0530041038523
1012500000,-11.8543808812565,-0.7215191302201699,-360.72151913022014,-4.690951091042193,64.76493823461473,-295.23506176538524,-2.886112450151344,56.2129154173563,-303.78708458264373,-10.410968978400756,13.854460186045637,-346.1455398139544
1025000000,-12.799717900933116,-9.056761384328334,-369.05676138432835,-4.612501823307711,54.23899597391333,-305.76100402608665,-2.2776721192105094,57.89827363506495,-302.1017263649351,-11.227675000937625,13.5740858491269,-346.4259141508731
1037500000,-11.645684544762197,-5.5175367090777225,-365.5175367090777,-3.768342670442733,48.43782888442228,-311.5621711155777,-2.562033987936596,60.147757352893954,-299.85224264710604,-11.367385187455133,14.918762454886798,-345.0812375451132
1050000000,-9.001206700339567,-6.930391660959359,-366.93039166095934,-2.6157242974288906,46.10225953726986,-313.89774046273016,-3.252220989024253,55.165336198579745,-304.8346638014203,-9.075637768708404,72.4403577919757,-287.5596422080243
1062500000,-11.752461495512986,-9.230966059160362,-369.2309660591604,-2.6363559642867767,49.12261014848897,-310.87738985151105,-4.247718539281429,51.577945014470636,-308.42205498552937,-10.97352553685047,6.891570764306169,-353.10842923569385
1075000000,-10.912636220139333,-14.965898396005084,-374.96589839600506,-3.2734834350486555,50.94152055450714,-309.0584794454929,-4.358995990096342,42.87208608851426,-317.12791391148573,-12.015572104776147,-7.784845818401118,-367.7848458184011
1087500000,-11.835014601324641,-21.750465338998563,-381.75046533899854,-3.823361070190004,45.39457746478871,-314.6054225352113,-3.9104365887447505,36.765115374961006,-323.234884625039,-12.24060422439441,-2.160104405415086,-362.1601044054151
1100000000,-12.148435999711438,-22.306586797211846,-382.3065867972118,-4.022620894141666,37.3961690804416,-322.6038309195584,-3.3685924912094958,34.39316481250037,-325.60683518749966,-13.578777211982263,-7.835126711957189,-367.8351267119572
1112500000,-13.083352728341644,-30.753133100764757,-390.7531331007648,-3.4612789342977384,30.898114878737864,-329.1018851212621,-3.1255279939963145,34.154790039564354,-325.8452099604356,-15.466734571489633,-23.757432742255734,-383.75743274225573
1125000000,-12.826739370432048,-34.43000982059788,-394.4300098205979,-3.7213808105776405,29.277421222435557,-330.7225787775644,-3.5790827845463307,28.318959925285288,-331.6810400747147,-15.132762684026504,-26.58707471087388,-386.5870747108739
1137500000,-13.150692583475292,-34.7356971480143,-394.7356971480143,-3.300494653580044,23.852596897551365,-336.1474031024486,-3.3172395513276562,26.01366726876011,-333.9863327312399,-16.36299065852831,-33.76139340558142,-393.76139340558143
1150000000,-13.212815764726056,-31.339562427349275,-391.3395624273493,-3.331472767916182,21.135922277990417,-338.8640777220096,-3.5026746857922952,24.8830497424791,-335.1169502575209,-15.408081677551845,-40.62749620514037,-400.62749620514035
1162500000,-15.386039473760384,-43.356398763157166,-403.3563987631572,-3.314047119545205,17.410296583023,-342.589703416977,-3.7325681048036334,22.110169854549852,-337.88983014545016,-13.40063029399808,-42.70055525663656,-402.70055525663656
1175000000,-15.192708428159028,-58.67695227601708,-418.67695227601706,-3.468364486534596,15.058009865411954,-344.941990134588,-4.180573829383744,16.06930034450796,-343.93069965549205,-18.90338926851022,-52.23811907240094,-412.23811907240093
1187500000,-14.92188112664703,-61.01562677600877,-421.0156267760088,-4.030354234526935,11.413104038804864,-348.5868959611951,-4.072467092087853,11.005306156179717,-348.9946938438203,-18.20684744919027,-56.30204977986184,-416.3020497798618
1200000000,-14.4555755091646,-62.01626662981401,-422.016266629814,-4.136119680651271,8.004729944539605,-351.9952700554604,-3.9766368418185656,6.83089667634594,-353.16910332365404,-17.002995753311254,-67.51240240854888,-427.5124024085489
1212500000,-14.343649469657171,-66.23834365627567,-426.2383436562757,-4.196992570237722,3.8494423075620814,-356.1505576924379,-3.8746857148348934,2.6599158323411465,-357.34008416765886,-14.16394467374036,-74.77837954482364,-434.7783795448236
1225000000,-16.785911139345394,-68.66744275999714,-428.66744275999713,-4.141445040291808,-1.7735114869911637,-361.77351148699114,-3.856022713770044,1.651264144528956,-358.34873585547103,-14.33762740968415,-72.13794684457366,-432.13794684457366
1237500000,-16.56587553543797,-83.47914564024917,-443.47914564024916,-4.12638472363039,-2.3953657255079075,-362.39536572550793,-4.261111928554315,0.9373427178833936,-359.0626572821166,-16.249192880455183,-80.0533464067216,-440.05334640672163
1250000000,-17.544818820062403,-79.86242218051456,-439.86242218051456,-3.9437283776679517,-4.797508603673564,-364.7975086036736,-4.014252460954228,-2.2922411399982936,-362.2922411399983,-16.05613423068951,-76.7396911737406,-436.7396911737406
1262500000,-16.150387579764118,-94.07592239860111,-454.0759223986011,-4.105458289803697,-6.506006345968887,-366.5060063459689,-4.424351200303352,-6.040227625413112,-366.04022762541314,-17.231598275613468,-100.83193856276698,-460.831938562767
1275000000,-16.10870341877625,-96.64732338315545,-456.6473233831555,-4.017492539057566,-8.976229202060008,-368.97622920206,-4.300224206925302,-9.518090775606678,-369.51809077560665,-16.494913623227237,-101.23122270647904,-461.23122270647906
1287500000,-15.910814204599033,-104.9045675099711,-464.9045675099711,-4.432947619119036,-13.154407770148095,-373.1544077701481,-4.405886289689293,-13.021051989104986,-373.021051989105,-14.646481918880752,-108.88712360902844,-468.88712360902844
1300000000,-16.19816282029666,-113.3529068968804,-473.3529068968804,-4.724211326381837,-17.180070687461047,-377.18007068746107,-4.291365943152056,-17.8390413992501,-377.8390413992501,-14.876129979292227,-90.39570265281874,-450.3957026528187
1312500000,-16.262397468141753,-119.88224719509205,-479.8822471950921,-4.525495601753386,-19.347712105224574,-379.34771210522456,-3.9192086320825332,-21.495943340008182,-381.4959433400082,-15.044062991946728,-90.40949680522782,-450.40949680522783
1325000000,-16.192047672439198,-127.7332869674739,-487.7332869674739,-4.2161670168010215,-25.42781541742986,-385.4278154174299,-3.553873305448736,-23.387477489320446,-383.3874774893204,-15.510334627761903,-103.87941159671826,-463.8794115967182
1337500000,-13.630042445165778,-124.8514976994956,-484.8514976994956,-3.5928121266419195,-23.898081395168344,-383.89808139516833,-3.833318694788772,-22.21863548864105,-382.21863548864104,-13.729026917080013,-122.18605655266586,-482.18605655266583
1350000000,-14.401874100028245,-116.42499540248193,-476.42499540248195,-3.4867487661342866,-22.092192604963746,-382.09219260496377,-4.53347902133242,-24.181544868221128,-384.1815448682211,-12.744726330758345,-109.92437354171969,-469.92437354171966
1362500000,-14.916045931308734,-117.87127073875459,-477.87127073875456,-4.090268926958763,-23.921015293871328,-383.92101529387133,-4.824046595470853,-30.289332047863603,-390.2893320478636,-13.351583498209767,-108.11158652101474,-468.1115865210147
1375000000,-14.682604692619822,-126.49414958591942,-486.49414958591944,-4.793449856910577,-31.88820902379691,-391.8882090237969,-4.383656785717615,-38.108437044154684,-398.1084370441547,-13.765957386992993,-119.59442139005142,-479.5944213900514
1387500000,-13.21247481783262,-141.50577487412957,-501.50577487412954,-3.830022935630085,-40.27686465982152,-400.2768646598215,-3.6390046423047058,-40.0946595155777,-400.0946595155777,-14.16929429464053,-129.33784590117443,-489.33784590117443
1400000000,-12.808077489363935,-142.94397845251746,-502.94397845251746,-2.774135012861124,-43.25309713646432,-403.2530971364643,-3.008786655164089,-37.59493762378159,-397.59493762378156,-12.952123994756342,-122.01661250443559,-482.01661250443556
1412500000,-12.765825549047298,-143.79907775988815,-503.7990777598882,-2.425900911566969,-42.7593148548938,-402.7593148548938,-3.4762471152211845,-36.61570759661748,-396.6157075966175,-13.885068295213534,-129.99914699664527,-489.99914699664527
1425000000,-13.235164340302642,-145.93935744942345,-505.9393574494235,-3.298198577952576,-43.133190539400076,-403.13319053940006,-4.269590718534268,-42.43077232305417,-402.43077232305416,-14.650111726143894,-141.119263967505,-501.119263967505
1437500000,-12.93023616095952,-149.9940197288758,-509.9940197288758,-4.118644791674347,-50.12810622262884,-410.12810622262884,-4.104292561373919,-51.69978695526323,-411.6997869552632,-15.76498668782933,-135.074467825733,-495.074467825733
1450000000,-11.632992964216808,-160.74862685059676,-520.7486268505968,-3.9618647923848984,-60.85081209963008,-420.8508120996301,-3.074208468617919,-59.40043046540219,-419.40043046540217,-15.005090436565094,-135.95250938160726,-495.95250938160723
1462500000,-11.988648997980263,-160.77488909136775,-520.7748890913678,-2.8413221905504327,-66.09956226191561,-426.0995622619156,-1.8498802931168676,-60.101230248494915,-420.1012302484949,-15.797900728722558,-133.55767140955857,-493.55767140955857
1475000000,-11.718019492764395,-152.65782579051168,-512.6578257905117,-1.9993543283045128,-61.99389089992665,-421.99389089992667,-1.8556336383858203,-56.664949487466394,-416.6649494874664,-14.251989178725704,-153.96941747400015,-513.9694174740001
1487500000,-13.716121117518721,-171.36302065705334,-531.3630206570533,-2.57270292694127,-57.08046465224822,-417.0804646522482,-2.403664043441946,-56.14228487546578,-416.1422848754658,-14.295404295602033,-162.45950778172562,-522.4595077817256
1500000000,-15.953651490170543,-172.85048489203143,-532.8504848920314,-3.585220259145206,-58.55099045805208,-418.55099045805207,-3.419130073544072,-64.71414424784047,-424.71414424784047,-18.627835629342528,-150.58572672101388,-510.5857267210139
