Frequency[Hz],S11/dB,S11/phase[deg],S11/unwrapped_phase[deg],S12/dB,S12/phase[deg],S12/unwrapped_phase[deg],S21/dB,S21/phase[deg],S21/unwrapped_phase[deg],S22/dB,S22/phase[deg], S22/unwrapped_phase[deg]
500000000,-12.965982425928722,52.01639791394688,52.01639791394688,-5.891104948167499,-137.4107763686603,-137.4107763686603,-5.474309948810932,-127.39326342011057,-127.39326342011057,-9.985762595878843,45.06833184826717,45.06833184826717
512500000,-11.27026578161599,42.04209387594134,42.04209387594134,-5.204220083517573,-140.7656735610606,-140.7656735610606,-6.061430901812313,-133.25772821427176,-133.25772821427176,-10.592312831557445,50.72546360579163,50.72546360579163
525000000,-14.619491650453543,36.28089950031152,36.28089950031152,-4.716649536439935,-143.95357963756084,-143.95357963756084,-5.884714618936871,-141.3816379014246,-141.3816379014246,-7.592291910332567,37.123977373809616,37.123977373809616
537500000,-11.649779884358274,33.740863080588234,33.740863080588234,-4.582869011292448,-138.6200823873429,-138.6200823873429,-5.22776308761864,-145.65897519554056,-145.65897519554056,-12.881265641723552,37.71795898191737,37.71795898191737
550000000,-12.524007071936076,31.18882210479628,31.18882210479628,-5.394356775008973,-140.5061044747932,-140.5061044747932,-4.535938755773474,-146.69734226321793,-146.69734226321793,-13.345009546960915,29.456870887104163,29.456870887104163
562500000,-14.100244695110707,28.73486853701318,28.73486853701318,-5.6560861676299865,-147.0468936429719,-147.0468936429719,-4.432670144711751,-144.37066349825454,-144.37066349825454,-13.046046183275413,18.351332558595,18.351332558595
575000000,-15.877111768795459,12.831128107496077,12.831128107496077,-5.217001611589197,-152.46821655194438,-152.46821655194438,-5.0420456988248645,-144.5773783620666,-144.5773783620666,-13.573911602525886,19.717349028956452,19.717349028956452
587500000,-14.57995671442038,5.037612423440067,5.037612423440067,-4.452591390667374,-155.41994520966642,-155.41994520966642,-5.485510236137291,-152.58973807764724,-152.58973807764724,-15.452418084636456,22.64164871712261,22.64164871712261
600000000,-14.643770694363285,0.018431871327916856,0.018431871327916856,-4.041904514212077,-154.10195918059785,-154.10195918059785,-4.911822404575228,-158.0215943523953,-158.0215943523953,-17.430531747518952,-3.9243417559828067,-3.9243417559828067
612500000,-17.371161256699644,4.568221075043948,4.568221075043948,-4.2450959506067285,-157.97301391718986,-157.97301391718986,-4.241395788843661,-162.50755578253668,-162.50755578253668,-17.526968343339963,1.6327315794142594,1.6327315794142594
625000000,-18.796403490257962,-15.723391657358365,-15.723391657358365,-4.303764090509482,-163.076776148633,-163.076776148633,-3.908456944948128,-163.8948624506858,-163.8948624506858,-17.869240553991116,-11.001588835320996,-11.001588835320996
637500000,-19.45936569761918,-21.75948381239448,-21.75948381239448,-3.785232693262321,-168.13550571757523,-168.13550571757523,-3.791857767239975,-167.16301733519336,-167.16301733519336,-21.062760821123135,-24.41977561186154,-24.41977561186154
650000000,-20.261784174519924,-19.143088726176828,-19.143088726176828,-3.6365632700078887,-170.58960247643589,-170.58960247643589,-3.6600348249380894,-170.73124255235624,-170.73124255235624,-19.101674652917215,-47.738297670531914,-47.738297670531914
662500000,-21.972469913662025,-44.97455921143187,-44.97455921143187,-3.528829312324213,-174.27531026344607,-174.27531026344607,-3.4815060584415565,-175.5783592584878,-175.5783592584878,-22.550570206966732,-48.22536006833321,-48.22536006833321
675000000,-25.647979590531406,-51.640342346234384,-51.640342346234384,-3.3526814461260166,-178.0143707136166,-178.0143707136166,-3.3019036375652444,-177.5843022560442,-177.5843022560442,-19.373309498830324,-49.190928387388155,-49.190928387388155
687500000,-26.110648094773488,-89.69562626587249,-89.69562626587249,-3.273895783553831,177.31821016026439,-182.68178983973561,-3.34412183434627,178.48243441247172,-181.51756558752828,-27.50088851865452,-66.84322603424395,-66.84322603424395
700000000,-25.685434467749047,-100.97012036927609,-100.97012036927609,-2.9707741880518053,173.89670151058593,-186.10329848941407,-3.298514084814477,174.67213091386103,-185.32786908613897,-26.88056385633758,-95.48483754479906,-95.48483754479906
712500000,-23.509428929404834,-149.46587539410137,-149.46587539410137,-2.8721729369720066,170.0490498600997,-189.9509501399003,-3.1708429677461307,167.96626745090444,-192.03373254909556,-24.183319906165078,-97.82759461689055,-97.82759461689055
725000000,-23.026473795626856,-156.49559226375322,-156.49559226375322,-2.7961758225448246,165.33468701869873,-194.66531298130127,-2.5939960627750542,163.6931836512348,-196.3068163487652,-24.935633064919408,-138.05248439105281,-138.05248439105281
737500000,-21.65067971473373,177.76423104915466,-182.23576895084534,-2.844936477481026,158.4848361824413,-201.5151638175587,-2.507182269201751,161.8160625142075,-198.1839374857925,-24.214224433713376,-166.26436917343713,-166.26436917343713
750000000,-21.299134923564434,162.02566895361642,-197.97433104638358,-2.1074440523177236,152.14410615751896,-207.85589384248104,-2.5595027648957935,157.07556537372528,-202.92443462627472,-24.900825426507307,-168.47564176803567,-168.47564176803567
762500000,-18.483973782785526,142.8866615379402,-217.1133384620598,-1.8951959400890586,150.21998877231547,-209.78001122768453,-2.600108833956129,149.31277192667775,-210.68722807332225,-26.797019380148505,-162.4761263045708,-162.4761263045708
775000000,-15.457648010893843,140.04735603632005,-219.95264396367995,-2.4154288501165744,148.3547554422765,-211.6452445577235,-2.2114431574090565,142.9901217215227,-217.0098782784773,-24.15840755980307,129.65949636998056,-230.34050363001944
787500000,-4.105050939409648,-171.05865006922778,-171.05865006922778,-20.867041135268956,-69.90797842648632,-69.90797842648632,-17.155753657320673,-156.43464404676058,-156.43464404676058,-22.2579179610291,85.99437026504256,-274.00562973495744
800000000,-17.815107383735803,105.74676889934564,-254.25323110065438,-3.085927265579139,130.91805158537304,-229.08194841462696,-1.6912117580722394,137.568410735653,-222.431589264347,-18.916067285933323,105.52902673434603,-254.47097326565398
812500000,-15.033919257347428,102.3736593022182,-257.6263406977818,-2.3891169391511275,125.49665279554397,-234.50334720445602,-2.367035573836578,136.18745707970544,-223.81254292029456,-18.671661622986846,96.67749462720607,-263.3225053727939
825000000,-14.927087781783953,87.00205264550895,-272.99794735449103,-1.7368843511633971,125.07738482199579,-234.9226151780042,-3.06081937108974,129.15876419384796,-230.84123580615204,-17.75321217297789,78.62044999913805,-281.37955000086197
837500000,-15.21457570872303,86.58234282867501,-273.417657171325,-1.8136338524427105,127.33625305427393,-232.66374694572607,-3.18098822280837,119.55923195196475,-240.44076804803524,-14.572451336109653,79.17371546520614,-280.82628453479384
850000000,-16.475663859874413,94.71043699016711,-265.2895630098329,-2.6198008306382814,126.64720791639647,-233.35279208360353,-2.452885664777407,112.96006043330058,-247.03993956669942,-16.545979506441707,66.55163240520208,-293.4483675947979
862500000,-15.38865701687509,88.28806724041515,-271.71193275958484,-3.1770694187262105,118.44925798807637,-241.55074201192363,-1.3701198515108088,111.36162976266057,-248.63837023733942,-13.33130852656751,71.2165464741703,-288.7834535258297
875000000,-15.288089112534326,57.98810177100333,-302.01189822899664,-3.0458363510997835,107.35395229546863,-252.64604770453138,-1.4998691032457026,112.36057196676074,-247.63942803323926,-11.629557361110262,51.87179753680249,-308.1282024631975
887500000,-13.304780291012047,57.02182730673692,-302.9781726932631,-1.932721206734672,100.72527026919491,-259.2747297308051,-2.204684073073138,111.68673049673238,-248.31326950326763,-14.921192586536186,56.60404505485196,-303.39595494514805
900000000,-13.57509417170428,52.658501204395094,-307.34149879560493,-1.130684754381456,100.93199508653635,-259.06800491346365,-3.2212450253255303,103.63400209716663,-256.3659979028334,-12.58104697245387,50.66936006162246,-309.33063993837754
912500000,-13.137171807826933,42.54094371201307,-317.4590562879869,-1.491044344579366,101.22947648290115,-258.77052351709887,-3.3830205905470265,93.75157564530416,-266.2484243546958,-13.64861914008529,47.64686675372717,-312.3531332462728
925000000,-12.860511275503361,40.77623723308833,-319.22376276691165,-2.5724442002519634,96.5462257530291,-263.4537742469709,-2.752683884328844,84.86145270790894,-275.13854729209106,-11.207987751809371,34.17238114498965,-325.82761885501037
937500000,-12.694859986624788,38.84677501355484,-321.15322498644514,-3.386730302186008,85.46289674279632,-274.5371032572037,-1.8575728321010883,81.79860460399169,-278.2013953960083,-10.146842776578318,38.4195537914361,-321.5804462085639
950000000,-12.01685730464424,19.736097204052097,-340.2639027959479,-3.0689670057033136,74.94663558868756,-285.05336441131243,-1.7654557276318479,84.59848974813089,-275.4015102518691,-10.777368423531367,31.534166807989294,-328.4658331920107
962500000,-12.746230069132949,22.306395255080684,-337.6936047449193,-2.4809160046833503,70.53829788743045,-289.4617021125696,-2.5166440182208327,85.262706470336,-274.737293529664,-11.966517839609947,28.683385035849746,-331.31661496415023
975000000,-11.010623664186054,14.817427802368314,-345.18257219763166,-1.8089715901437473,71.32511099889312,-288.67488900110686,-3.768949401209014,79.68819913491198,-280.311800865088,-12.605770318400698,24.779280948292268,-335.22071905170776
987500000,-12.65759022809906,13.594350169961343,-346.40564983003867,-2.429416884922599,73.72380246701582,-286.27619753298416,-4.234337920034529,69.06393069255675,-290.93606930744323,-10.552099957256376,18.787098868385982,-341.212901131614
1000000000,-12.151198210885081,9.79389618728724,-350.20610381271274,-3.5687029248952125,72.56115137765869,-287.4388486223413,-3.6089960061162643,59.25349479339819,-300.7465052066018,-11.355072593660998,18.606224647736916,-341.3937753522631
1012500000,-11.234630709416491,1.1013707133618527,-358.89862928663814,-4.654260713701974,65.04996524146718,-294.9500347585328,-2.883510020865978,55.74159384203706,-304.25840615796295,-10.39491049196468,13.04182234334768,-346.9581776566523
1025000000,-12.838729475969767,-12.671378537312577,-372.6713785373126,-4.6079055447950505,54.86144614716489,-305.1385538528351,-2.301206931212248,58.54623551534789,-301.4537644846521,-11.063505440344157,19.365783759258484,-340.6342162407415
1037500000,-11.666841590937773,-4.198014442848338,-364.1980144428483,-3.6922642810390087,48.83030316823801,-311.169696831762,-2.6034328700294234,60.05076862313358,-299.9492313768664,-10.797555131987302,11.843916017571342,-348.15608398242864
1050000000,-9.30264743774184,-0.4507257735191991,-360.4507257735192,-2.574949488093013,42.63315961770283,-317.36684038229714,-3.3994028627186292,56.46350742537003,-303.53649257462996,-9.108537747526018,47.42148551445967,-312.5785144855403
1062500000,-11.442139084498857,-8.938986041293905,-368.9389860412939,-2.7050166232335298,49.694735380752675,-310.30526461924734,-4.173964989068735,51.697023490262644,-308.30297650973733,-12.311646198849314,0.1081887852163324,-359.8918112147837
1075000000,-10.915264193093751,-14.643932320573978,-374.643932320574,-3.203864073078768,51.13498668151887,-308.86501331848115,-4.41066213404481,42.809000783745425,-317.19099921625457,-11.37067312028548,-8.976715474146172,-368.97671547414615
1087500000,-12.128107739662966,-19.707685883102897,-379.7076858831029,-3.8397238732102923,45.76549534411064,-314.23450465588934,-3.89908867184948,36.41188069464135,-323.58811930535865,-12.459383690516283,0.903034735767756,-359.09696526423227
1100000000,-12.159205796751639,-21.778180160013093,-381.7781801600131,-4.038072318867122,37.3179950867648,-322.6820049132352,-3.3216740977404147,33.98014234855568,-326.01985765144434,-13.752788375899085,-11.422067410670666,-371.42206741067065
1112500000,-12.15649110105253,-31.136010802509915,-391.13601080250993,-3.443726941273657,31.496961147057597,-328.5030388529424,-3.196252153976799,34.548703561858495,-325.4512964381415,-16.477206408925863,-22.93650612673603,-382.93650612673605
1125000000,-12.913225054692976,-29.08705298382179,-389.08705298382176,-3.7066664298698493,29.41600091333755,-330.58399908666246,-3.668394519388432,27.936977438564515,-332.0630225614355,-16.17279379888486,-20.042593484490183,-380.04259348449017
1137500000,-13.143240746245123,-33.5132428576396,-393.5132428576396,-3.4975413233265797,24.23289578550665,-335.7671042144934,-3.320457335209726,25.644176751730395,-334.3558232482696,-15.460470273690705,-32.14691639761975,-392.14691639761975
1150000000,-13.75765736594198,-34.196213826797916,-394.19621382679793,-3.3340774805845133,20.766718222015392,-339.2332817779846,-3.411188049686695,25.040794540474472,-334.95920545952555,-14.966331515311422,-44.723609188679376,-404.72360918867935
1162500000,-14.307085633919893,-38.42058065113118,-398.42058065113116,-3.1838345445110576,17.990382613689658,-342.00961738631037,-3.7432984852052256,22.29441534220561,-337.70558465779436,-13.818427219141176,-38.940219433850146,-398.94021943385013
1175000000,-14.606092925709646,-51.11674902554069,-411.1167490255407,-3.5209512475917304,14.634355692872598,-345.3656443071274,-4.073583726611889,15.742657978665248,-344.25734202133475,-17.83070812706823,-55.459187721617226,-415.45918772161724
1187500000,-14.390472669136884,-61.16676179486859,-421.1667617948686,-4.048315243700714,12.055735395612432,-347.94426460438757,-4.071852251869895,10.882608323056054,-349.11739167694395,-18.14373249264151,-60.94379128708229,-420.94379128708226
1200000000,-14.920175776260693,-63.23785652101377,-423.2378565210138,-4.195763034192711,7.8987886815442065,-352.1012113184558,-3.9769488640428703,6.410460641176254,-353.58953935882374,-15.284304816086697,-67.80455109714262,-427.8045510971426
1212500000,-15.157633725457938,-58.96883698443097,-418.968836984431,-4.107494540623404,5.4769602500039305,-354.5230397499961,-3.8290174307766103,3.2524897027466695,-356.7475102972533,-16.098563621318416,-77.17071753004775,-437.17071753004774
1225000000,-16.391546536326523,-68.28205530773349,-428.28205530773346,-4.311234424234533,-0.8369562183160839,-360.83695621831606,-3.9190984785057608,1.0207616245169036,-358.9792383754831,-15.363300043143022,-84.15689686229312,-444.15689686229314
1237500000,-16.44048746657687,-77.1086601475868,-437.1086601475868,-4.027676632491679,-2.935679863681784,-362.9356798636818,-4.124038473283355,0.5455445430086693,-359.45445545699135,-15.807836422310118,-80.42698676067263,-440.42698676067266
1250000000,-16.703974386870332,-85.4192852593177,-445.4192852593177,-4.015221843550646,-4.7597595529815315,-364.7597595529815,-4.152810200311055,-1.9426991188346199,-361.94269911883464,-16.144925422533017,-82.51359376300056,-442.5135937630006
1262500000,-16.47186685506551,-89.12855004593301,-449.128550045933,-4.085393604499226,-6.974269418167484,-366.97426941816747,-4.292361391224427,-5.969068811693384,-365.9690688116934,-17.64442633437489,-89.48308617800913,-449.4830861780091
1275000000,-17.284213670561705,-99.61971492773799,-459.61971492773796,-4.050324902341399,-9.059391826678773,-369.0593918266788,-4.242743117569142,-8.966010032929494,-368.9660100329295,-16.426640826471864,-95.89887940857156,-455.8988794085716
1287500000,-15.966320979028968,-100.45678820131485,-460.45678820131485,-4.484485423834093,-12.529585407912771,-372.52958540791275,-4.330402262861082,-13.320904344329112,-373.3209043443291,-14.659205403595688,-111.64908703471006,-471.6490870347101
1300000000,-16.750815204760954,-105.38124913546606,-465.3812491354661,-4.655609451875684,-17.26709792562859,-377.2670979256286,-4.220792213545983,-18.336272176456475,-378.3362721764565,-15.397902884272794,-95.81851737136238,-455.81851737136236
1312500000,-16.66199813176702,-112.00925263027925,-472.00925263027926,-4.504553787052006,-19.291762213735737,-379.29176221373575,-3.8632983176397273,-21.69316116059016,-381.69316116059014,-16.0774727833296,-96.63791701341873,-456.6379170134187
1325000000,-16.212475423707147,-115.87724178760409,-475.8772417876041,-4.3225211773946075,-24.311672238229736,-384.31167223822973,-3.6370112339448224,-24.251318201277293,-384.2513182012773,-14.44932734645927,-107.0634891465397,-467.0634891465397
1337500000,-13.728949076022076,-129.14959225348548,-489.1495922534855,-3.7033585110838025,-25.189734039652105,-385.1897340396521,-3.801515134856293,-22.559442822974752,-382.55944282297475,-13.794288084910171,-112.95523625633012,-472.9552362563301
1350000000,-13.712054837372577,-118.40455581539683,-478.40455581539686,-3.3493340711130566,-21.92343897883538,-381.9234389788354,-4.488799351417615,-23.45028644526549,-383.4502864452655,-13.16772686365187,-118.76433640720397,-478.764336407204
1362500000,-15.663346803104798,-125.82208249333556,-485.82208249333553,-4.161922228206767,-24.294622189223215,-384.2946221892232,-4.7649629634118895,-30.874098527051043,-390.87409852705105,-13.478170816375542,-104.82701851139409,-464.8270185113941
1375000000,-14.930774813479868,-127.22709891571066,-487.22709891571066,-4.637297605511459,-31.41519514558209,-391.41519514558206,-4.43737051783243,-38.778918177645835,-398.77891817764583,-15.377808671023425,-126.94940122785722,-486.9494012278572
1387500000,-13.830966669399707,-146.51813896088083,-506.51813896088083,-3.8673764795905488,-41.14443942173538,-401.1444394217354,-3.602835467272541,-40.33391301649262,-400.3339130164926,-14.14760371043571,-130.41565679165578,-490.4156567916558
1400000000,-12.686976942424316,-144.51636572413287,-504.51636572413287,-2.668647906693788,-43.66823030615507,-403.66823030615507,-2.974715790909259,-38.01710911896105,-398.01710911896106,-14.178714588860998,-127.34588503626398,-487.345885036264
1412500000,-12.587060593677036,-140.82188014465288,-500.8218801446529,-2.449558899213358,-42.787074618981556,-402.78707461898153,-3.5086419607721178,-36.507170400605716,-396.50717040060573,-13.651037801331112,-122.90085731490811,-482.9008573149081
1425000000,-13.172224011092872,-143.9348912098707,-503.93489120987067,-3.4601148433662052,-43.19604305217665,-403.19604305217666,-4.127503146969896,-42.454288138247755,-402.45428813824776,-13.282263826784648,-138.0358160049598,-498.03581600495977
1437500000,-13.136555382285486,-153.9107819878675,-513.9107819878675,-4.22628398767838,-49.807713316182074,-409.80771331618206,-4.1335062601531,-52.361753589075185,-412.3617535890752,-16.051297688618206,-121.08672935198972,-481.08672935198973
1450000000,-12.352641299309113,-152.8984174161994,-512.8984174161994,-3.8173927095428652,-61.63395871734349,-421.6339587173435,-3.189392021212706,-59.71052259422044,-419.71052259422044,-16.96333890061886,-137.07734227435327,-497.07734227435327
1462500000,-11.534148837820645,-157.30708890613644,-517.3070889061364,-2.7092157565165538,-66.14276934847868,-426.1427693484787,-1.9070725002523525,-59.46842191265323,-419.46842191265324,-16.3000139228834,-147.85962190392053,-507.8596219039205
1475000000,-13.340627769103559,-151.83141545907282,-511.8314154590728,-2.031206595620387,-62.77439791936154,-422.77439791936155,-1.8601017971428992,-57.707430900244084,-417.7074309002441,-14.625767409310447,-151.21368176671274,-511.21368176671274
1487500000,-13.894242006683035,-172.64154922685296,-532.6415492268529,-2.705043787798407,-57.78301073686831,-417.78301073686833,-2.360245752615437,-56.56105591313287,-416.56105591313286,-14.144112085902634,-158.27253640702008,-518.2725364070201
1500000000,-15.904994337181872,179.85575338075733,-540.1442466192427,-3.6796771890750617,-59.66140855501514,-419.66140855501516,-3.428831593927958,-64.8180023452944,-424.8180023452944,-20.317437571592198,-150.91497440685802,-510.91497440685805
