Frequency[Hz],S11/dB,S11/phase[deg],S11/unwrapped_phase[deg],S12/dB,S12/phase[deg],S12/unwrapped_phase[deg],S21/dB,S21/phase[deg],S21/unwrapped_phase[deg],S22/dB,S22/phase[deg], S22/unwrapped_phase[deg]
500000000,-11.197383182732445,44.317347544969394,44.317347544969394,-5.845311238456407,-146.25358757850444,-146.25358757850444,-5.788356582318346,-139.2313771462475,-139.2313771462475,-4.9113385521610695,80.10448355715552,80.10448355715552
512500000,-11.163170796236608,36.900227320755484,36.900227320755484,-4.70917038750789,-150.50102072403928,-150.50102072403928,-6.233854816220883,-146.85279090558657,-146.85279090558657,-3.443637663469756,79.98722863893406,79.98722863893406
525000000,-10.740934942746057,7.384224809961387,7.384224809961387,-4.047860306748056,-146.41253635409436,-146.41253635409436,-5.971193067733523,-159.1805710989404,-159.1805710989404,-3.527296011385432,108.00732794822895,108.00732794822895
537500000,-11.570242626226035,33.333749656756844,33.333749656756844,-4.721918753358818,-151.8683520246386,-151.8683520246386,-5.499193512879483,-158.61719580306087,-158.61719580306087,-4.18536963370551,83.05106297785649,83.05106297785649
550000000,-11.583392039245437,32.7401865437466,32.7401865437466,-5.2711413686038675,-153.249011082675,-153.249011082675,-5.010515552800637,-160.18414425359637,-160.18414425359637,-5.249051865001698,75.88147407004239,75.88147407004239
562500000,-12.79641690045229,28.582174507715813,28.582174507715813,-5.67090751007612,-161.44894977214835,-161.44894977214835,-5.3214947104598895,-159.8929439105489,-159.8929439105489,-5.18203066917391,63.557518360788634,63.557518360788634
575000000,-14.036151825354866,18.899632476904745,18.899632476904745,-5.1325214543607,-169.28581468483904,-169.28581468483904,-5.992462266045983,-161.9719799227726,-161.9719799227726,-3.3941652079742592,59.321816818673916,59.321816818673916
587500000,-13.892094576287368,21.577379301487806,21.577379301487806,-4.504610129076973,-173.50646840999403,-173.50646840999403,-6.278473191595704,-169.78123073383986,-169.78123073383986,-2.813474354144498,60.397811521066004,60.397811521066004
600000000,-15.705362646201404,21.604560770431075,21.604560770431075,-4.235834742736367,-175.82191519604208,-175.82191519604208,-5.614771997811717,-174.3710870133319,-174.3710870133319,-3.518340170765018,63.77902162652015,63.77902162652015
612500000,-16.891103195456193,18.456423593325166,18.456423593325166,-4.2725198909843085,178.7878362876564,-181.2121637123436,-5.190257824386056,-177.26776627966473,-177.26776627966473,-4.7201212753511275,58.437955728865624,58.437955728865624
625000000,-18.366308194082396,13.040324756125681,13.040324756125681,-4.11975212947489,174.29404006330063,-185.70595993669937,-5.024494658820763,-179.95539785711622,-179.95539785711622,-4.500409340787422,48.86083471829449,48.86083471829449
637500000,-18.70127055531909,9.085673207034402,9.085673207034402,-4.058942384988637,171.5604300772078,-188.4395699227922,-4.649893242297626,171.08590720703762,-188.91409279296238,-3.451541710934422,43.61334824372028,43.61334824372028
650000000,-19.686883739762884,15.349095090838027,15.349095090838027,-4.418876942446794,165.6087838374668,-194.3912161625332,-4.215996443026951,164.73060402370442,-195.26939597629558,-3.1824080455948685,41.90905659518428,41.90905659518428
662500000,-21.716780344290186,-7.892365601743777,-7.892365601743777,-4.84771375305968,157.14962345995838,-202.85037654004162,-3.9599875583042192,162.50737031647753,-197.49262968352247,-3.3068307617145116,40.328786084558786,40.328786084558786
675000000,-23.337611909506354,-5.557659738907512,-5.557659738907512,-4.4163672049881555,145.6565747084385,-214.3434252915615,-4.137544698431929,156.39310570778125,-203.60689429221875,-4.1260755992538725,29.507721876456017,29.507721876456017
687500000,-24.481081638924223,-36.01921510429119,-36.01921510429119,-3.714649464653233,141.76999608816047,-218.23000391183953,-5.039725570819138,150.65344754962894,-209.34655245037106,-4.0614149652667155,23.00843288193423,23.00843288193423
700000000,-34.53969299953517,-32.30372256767211,-32.30372256767211,-3.934797112484209,138.9061676906707,-221.0938323093293,-5.617374435466412,139.901344378208,-220.098655621792,-3.953467985778469,14.32032446396019,14.32032446396019
712500000,-31.1657612269314,174.12317182237572,-185.87682817762428,-4.9347787811745745,134.04175060640824,-225.95824939359176,-5.138233063851404,130.2466265315235,-229.7533734684765,-3.3323743161940715,8.447039198182818,8.447039198182818
725000000,-24.294635153605327,-179.9602532669022,-179.9602532669022,-5.770680602697434,122.60359836165455,-237.39640163834545,-4.688760639932758,129.98404682650377,-230.01595317349623,-3.44540546919305,7.552439764143163,7.552439764143163
737500000,-22.56228755992259,142.1401770921628,-217.8598229078372,-5.577341234143645,110.41077926595622,-249.58922073404378,-5.650116883406903,130.18577653180802,-229.81422346819198,-3.822240652950698,-0.07695685954035598,-0.07695685954035598
750000000,-20.374811411416736,132.1637507416935,-227.8362492583065,-5.234296661386405,105.84939177514951,-254.1506082248505,-6.763624045727335,120.70287542115753,-239.29712457884247,-4.159250709398992,-8.799836075554596,-8.799836075554596
762500000,-17.48307365824249,118.90977459566469,-241.0902254043353,-6.00445733076005,110.8305310452028,-249.1694689547972,-7.040695448521107,109.31954153875017,-250.68045846124983,-3.983912517920514,-13.427623437228103,-13.427623437228103
775000000,-17.923893864041265,120.25933200861266,-239.74066799138734,-7.804681995499711,106.70696047971796,-253.29303952028204,-6.020174457992757,101.674208807899,-258.325791192101,-4.300652116143456,-18.686412753540115,-18.686412753540115
787500000,-3.1790179078550853,-63.01338331929098,-63.01338331929098,-5.5216798213399665,88.95510030063078,-271.04489969936924,-1.6791528277303314,-114.99728791822572,-114.99728791822572,-4.512001641413496,82.30032995831911,82.30032995831911
800000000,-16.061903119107726,105.13984540787347,105.13984540787347,-8.47876773867958,83.01744730875174,-276.98255269124826,-7.056749919812915,102.5861077204973,-257.4138922795027,-4.094244058439012,-33.76408218306405,-33.76408218306405
812500000,-16.223043787347834,86.76806216233383,86.76806216233383,-7.9363012231754695,81.52866433066262,-278.47133566933735,-8.590399860939971,99.16292391393456,-260.83707608606545,-4.528278481230013,-33.37117057765393,-33.37117057765393
825000000,-13.810608215333907,81.77914946079032,81.77914946079032,-8.2086344111652,83.89496316348311,-276.1050368365169,-9.27759193838398,87.498713211139,-272.50128678886097,-4.877551407797094,-34.46296143556091,-34.46296143556091
837500000,-12.644157294699403,88.8993980947815,88.8993980947815,-9.311572896871889,88.38393771236505,-271.6160622876349,-8.724552132927885,76.3302782663206,-283.6697217336794,-6.013884934439124,-34.94051578182875,-34.94051578182875
850000000,-13.042772754898122,84.5855973055939,84.5855973055939,-10.7216649418846,82.30578674538985,-277.69421325461013,-8.061031219848259,74.85621749116932,-285.14378250883067,-6.651822487251415,-43.73826099769675,-43.73826099769675
862500000,-14.820382654088466,84.23115292326328,84.23115292326328,-11.852476467002033,70.03744546512797,-289.962554534872,-8.305100727790302,77.06529412688498,-282.93470587311504,-6.7166162303202395,-49.40318763050183,-49.40318763050183
875000000,-12.881242859298162,61.391506776875886,61.391506776875886,-11.318677899516087,61.839902190371106,-298.1600978096289,-9.467168894021928,77.14273668814988,-282.85726331185015,-6.433077429246934,-51.54633631613252,-51.54633631613252
887500000,-13.164885949884182,49.093117739780844,49.093117739780844,-10.540735160041422,59.86231281905735,-300.13768718094263,-10.982425633298348,70.51034245113674,-289.48965754886325,-7.315058299186655,-51.01289782749751,-51.01289782749751
900000000,-10.363940652654103,47.37154680630632,47.37154680630632,-11.19973083092965,60.09309919900536,-299.90690080099466,-11.853676349531973,59.83936965021586,-300.1606303497841,-7.35329257465934,-54.34120454670815,-54.34120454670815
912500000,-11.225775254632621,50.114812078885365,50.114812078885365,-11.98587961439674,60.20973876666915,-299.79026123333085,-11.884108639803044,50.53579863092937,-309.4642013690706,-8.038919032111,-53.101740809051485,-53.101740809051485
925000000,-12.55664622200227,41.11437705732701,41.11437705732701,-13.545010811135896,53.997553257020925,-306.0024467429791,-11.509132189944836,49.417759618122076,-310.5822403818779,-8.98935034328642,-67.96436461315466,-67.96436461315466
937500000,-12.052399882453424,36.521706913250675,36.521706913250675,-14.334083243383152,44.53465671048705,-315.46534328951293,-11.919525883415453,46.673190102032535,-313.32680989796745,-8.514812661955183,-66.88741964786709,-66.88741964786709
950000000,-11.96470907390728,22.176853915041974,22.176853915041974,-14.282693088405939,39.71451213102699,-320.285487868973,-12.76560424945584,48.37516522342895,-311.62483477657105,-8.189725464997654,-66.32186563456777,-66.32186563456777
962500000,-11.327672118432195,24.47877837347001,24.47877837347001,-13.800385572766487,35.550378134115526,-324.44962186588447,-14.176598538755272,45.495894732972964,-314.50410526702706,-10.394712600779968,-66.2664340673493,-66.2664340673493
975000000,-11.545518551113801,18.796708052267448,18.796708052267448,-14.5962198398783,37.828039429831335,-322.17196057016866,-14.96700105509321,37.10468035267642,-322.89531964732356,-11.417182963505299,-65.75852192541406,-65.75852192541406
987500000,-11.117194034834226,24.042946449719803,24.042946449719803,-15.328666655010274,36.7686404592063,-323.2313595407937,-15.670068927029824,29.989712529644944,-330.0102874703551,-12.800859835449234,-74.84200337273732,-74.84200337273732
1000000000,-10.924541876295512,16.690728225590533,16.690728225590533,-17.244179467467987,34.94501160425868,-325.0549883957413,-15.813755374584302,28.36188004311996,-331.63811995688,-12.868825966429931,-83.09553779667614,-83.09553779667614
1012500000,-12.271583610459578,15.659547853278433,15.659547853278433,-17.935081989162796,29.07711483113448,-330.9228851688655,-15.876148739864593,27.329935914855692,-332.6700640851443,-12.535079315607568,-81.5652777835768,-81.5652777835768
1025000000,-11.072242598840356,14.045125446884033,14.045125446884033,-18.21747642677599,21.70970830544713,-338.2902916945529,-15.922989631185928,29.860624618025525,-330.13937538197445,-12.179746492431814,-79.89525649496143,-79.89525649496143
1037500000,-12.129161018357923,13.460763773530635,13.460763773530635,-17.837480305577667,26.062096749568642,-333.93790325043136,-17.686960956984855,30.280911918366584,-329.7190880816334,-12.43903532760741,-83.42856299211626,-83.42856299211626
1050000000,-11.40806847881068,11.03556443476773,11.03556443476773,-18.040102042323657,17.91315340415161,-342.0868465958484,-17.752558423118593,28.253798439930065,-331.74620156006995,-16.07988537117228,-78.25225252123883,-78.25225252123883
1062500000,-11.728735271296252,13.609083198946132,13.609083198946132,-19.106455332737507,23.187081208989756,-336.81291879101025,-19.343096042847957,19.756303672727967,-340.243696327272,-16.259462516451872,-101.31272482991214,-101.31272482991214
1075000000,-11.649265956500754,9.803439293955119,9.803439293955119,-19.13594718201026,19.07721138450002,-340.9227886155,-19.918488162200003,15.506272651147512,-344.4937273488525,-16.900646319414115,-108.64834675265739,-108.64834675265739
1087500000,-12.385370961942243,7.364848148781912,7.364848148781912,-19.849985919855815,19.716917034843117,-340.2830829651569,-19.41593728471698,15.738796650921477,-344.2612033490785,-15.745993244943786,-105.07430909793757,-105.07430909793757
1100000000,-13.37009306052072,2.150854597759496,2.150854597759496,-20.372849085831778,18.125543744045157,-341.87445625595484,-20.217830562050743,12.70212074559162,-347.2978792544084,-15.254778609299994,-120.66408239556219,-120.66408239556219
1112500000,-14.149228197061486,4.35344685414501,4.35344685414501,-20.653251384465374,16.450219562321276,-343.54978043767875,-20.909292163778854,9.453289535344632,-350.54671046465535,-17.38314151453027,-106.0294513747769,-106.0294513747769
1125000000,-14.414673940602915,2.5766963594470322,2.5766963594470322,-20.624583366628197,11.0967743185559,-348.9032256814441,-21.190890112282588,5.586954362113927,-354.41304563788606,-18.458102153779613,-132.0792873634032,-132.0792873634032
1137500000,-13.959631827631727,2.3798613054245443,2.3798613054245443,-20.90650810825085,13.248371936409145,-346.75162806359083,-21.271842466626914,4.295479344145897,-355.7045206558541,-14.659408706252146,-122.69224565048415,-122.69224565048415
1150000000,-15.987010796160718,4.412298398098382,4.412298398098382,-20.918861036599374,12.134339679295529,-347.8656603207045,-22.379733024425956,4.993682200251862,-355.00631779974816,-14.63002244308677,-123.24658749990934,-123.24658749990934
1162500000,-18.07122332470564,3.092144143333083,3.092144143333083,-22.724469778627334,5.750469371038055,-354.24953062896196,-22.479832515704018,2.3671183855823403,-357.63288161441767,-17.690597653935356,-127.12139513036541,-127.12139513036541
1175000000,-18.991287596914535,6.7218904657710254,6.7218904657710254,-23.420128717194856,6.1485566035780055,-353.851443396422,-22.615180723409942,7.8351884120932676,-352.16481158790674,-17.206154230980268,-132.62032305498138,-132.62032305498138
1187500000,-20.586243931969364,-9.898696324397088,-9.898696324397088,-22.445185360861693,6.388936664373341,-353.6110633356267,-22.583957364572935,0.34227541488569596,-359.6577245851143,-16.136056580805263,-136.96371843510357,-136.96371843510357
1200000000,-22.62037872246661,-6.5982278756278046,-6.5982278756278046,-23.9150942809883,10.795606901017775,-349.2043930989822,-23.492935800489683,-0.19791349180206233,-360.19791349180207,-15.479363398557386,-136.76914221776454,-136.76914221776454
1212500000,-19.657496228528505,-2.8029368768148246,-2.8029368768148246,-24.94254513389904,-4.88834957040485,-364.88834957040484,-24.4080810660097,-3.878755635125325,-363.87875563512534,-14.909673339098335,-145.41105363688638,-145.41105363688638
1225000000,-23.11856708996132,-34.71443023669543,-34.71443023669543,-25.179860059796212,-6.040682811610938,-366.04068281161096,-24.69553470724665,-6.242151866750645,-366.24215186675065,-16.920657407918398,-128.27301749532268,-128.27301749532268
1237500000,-29.08401492785734,27.036733890326683,27.036733890326683,-26.21753316703746,-10.46389710230364,-370.46389710230363,-26.64420119104117,-4.4897231898820085,-364.489723189882,-15.526009590589457,-147.23095612862772,-147.23095612862772
1250000000,-30.710279736585278,-9.503846945439339,-9.503846945439339,-27.838944057230954,-6.611677320717452,-366.61167732071743,-26.205000162686623,-3.8325321777104873,-363.8325321777105,-17.501149661884835,-123.19779741483767,-123.19779741483767
1262500000,-32.295662930000084,-152.96191945656452,-152.96191945656452,-27.523623957544974,9.854210862116146,-350.14578913788387,-26.7464377604918,0.2396277126323846,-359.7603722873676,-16.880485234925242,-143.98127112764706,-143.98127112764706
1275000000,-37.71835571181128,-130.74809668495334,-130.74809668495334,-30.386270569795464,3.0809571742848125,-356.91904282571517,-27.532961498840606,6.00641577932728,-353.99358422067274,-16.794150331747247,-133.2640745867997,-133.2640745867997
1287500000,-27.54144821195366,-160.56216191868452,-160.56216191868452,-31.41190023546766,2.585685124963939,-357.41431487503604,-28.993693456463067,4.610866879652728,-355.38913312034725,-14.403927468743563,-135.6765844363809,-135.6765844363809
1300000000,-25.58093595962831,176.50004083843598,-183.49995916156402,-31.0027586566084,-7.872191416366475,-367.8721914163665,-28.643597926762695,-1.8348998848432607,-361.83489988484325,-13.590166220288662,-133.80741316177964,-133.80741316177964
1312500000,-22.72078624932599,-159.31139527380648,-159.31139527380648,-34.97573919148009,-8.713806667985116,-368.7138066679851,-30.826250103267824,4.196819274826693,-355.8031807251733,-15.556933954954,-138.25780484571933,-138.25780484571933
1325000000,-21.405585480388098,-173.33194476169948,-173.33194476169948,-36.037832901016785,0.8787548441833128,-359.12124515581667,-32.49450296554494,-6.542308536950021,-366.54230853695003,-13.145421467426301,-137.32778629428253,-137.32778629428253
1337500000,-20.062466985989666,-164.76060073189174,-164.76060073189174,-33.24454663933475,-11.745084496466006,-371.745084496466,-30.79400524853628,17.676569373836706,-342.3234306261633,-14.035473977914961,-136.4057308597139,-136.4057308597139
1350000000,-19.392262617294552,-171.62040621887408,-171.62040621887408,-35.977710609125346,19.95986434550841,-340.04013565449156,-34.435131000167715,2.484482902341737,-357.5155170976583,-13.436720727036644,-125.29200526660995,-125.29200526660995
1362500000,-18.564794667965334,-178.0192199570851,-178.0192199570851,-43.67787115586119,-0.5169802264724478,-360.51698022647247,-35.370033701127326,7.452268039769806,-352.5477319602302,-13.089788145487093,-130.04093345787425,-130.04093345787425
1375000000,-20.948064091407062,173.95172553664605,-186.04827446335395,-45.724919096238075,38.4953442530055,-321.5046557469945,-36.496920859155125,23.432215985046724,-336.5677840149533,-13.577096778823709,-119.948106015425,-119.948106015425
1387500000,-18.389525460878684,175.1544839666279,-184.8455160333721,-36.227505042327465,6.995562743681082,-353.0044372563189,-36.360635515232495,7.693441083605735,-352.30655891639424,-14.029272313919996,-129.4561876443616,-129.4561876443616
1400000000,-19.127017033498937,161.60566087440696,-198.39433912559304,-42.91844667525727,86.88766564003585,-273.11233435996417,-37.208215498008435,51.830999444595115,-308.16900055540486,-15.310509642589771,-135.77273783914717,-135.77273783914717
1412500000,-18.030752875723323,173.3560910974068,-186.6439089025932,-37.822608753305005,85.83694069690289,-274.1630593030971,-37.927474210681616,82.21731008081169,-277.78268991918833,-15.767369260598779,-129.6443311552331,-129.6443311552331
1425000000,-18.272701437868523,152.7859661110715,-207.2140338889285,-38.17227944601954,83.7734321159623,-276.2265678840377,-39.53832599192372,67.766438363489,-292.233561636511,-14.520387250620676,-127.95521751767782,-127.95521751767782
1437500000,-16.876067628168357,165.96247046802753,-194.03752953197247,-34.78203353028111,107.58584025234293,-252.41415974765707,-36.77431107948591,77.31603739188567,-282.6839626081143,-14.759274580752269,-130.67955621516018,-130.67955621516018
1450000000,-18.67938278599023,166.75636403006533,-193.24363596993467,-35.16186090942977,105.65685752154528,-254.34314247845472,-33.52027778783458,97.75514913603776,-262.24485086396226,-15.846578245263958,-133.64293262753148,-133.64293262753148
1462500000,-18.948373297516753,137.49688219614796,-222.50311780385204,-29.660144467828466,99.2280944179842,-260.7719055820158,-28.124487085870513,107.29232263032875,-252.70767736967125,-14.854145568308976,-139.3057981269161,-139.3057981269161
1475000000,-15.958903696400629,135.58437894852324,-224.41562105147676,-29.68739826219871,130.13160176403775,-229.86839823596225,-27.586101198968507,104.05066296883146,-255.94933703116854,-13.880035405730105,-130.74301699621296,-130.74301699621296
1487500000,-16.40407217920665,111.85002268916053,-248.14997731083946,-28.522585127829977,115.90909494063015,-244.09090505936985,-27.462437059592098,105.8327079491789,-254.16729205082112,-12.328971517946286,-141.82355281879347,-141.82355281879347
1500000000,-17.87905291655456,103.5580361248406,-256.4419638751594,-29.19726293483872,124.96357663513255,-235.03642336486746,-26.537982404556534,117.7835413947272,-242.2164586052728,-13.745130377761711,-144.53446926943107,-144.53446926943107
1512500000,-15.243313226802979,115.5918415505572,-244.4081584494428,-28.7470894615482,103.38364798215973,-256.61635201784026,-24.859649163361578,92.4346845350439,-267.5653154649561,-14.09673134556307,-154.97732786539177,-154.97732786539177
