Frequency[Hz],S11/dB,S11/phase[deg],S11/unwrapped_phase[deg],S12/dB,S12/phase[deg],S12/unwrapped_phase[deg],S21/dB,S21/phase[deg],S21/unwrapped_phase[deg],S22/dB,S22/phase[deg], S22/unwrapped_phase[deg]
500000000,-10.848181808210262,44.52686648723627,44.52686648723627,-5.673246556930961,-145.02564944624376,-145.02564944624376,-5.860620454067852,-138.87942531667045,-138.87942531667045,-4.962808190770845,79.9271365546752,79.9271365546752
512500000,-11.762317792807584,40.47197126280073,40.47197126280073,-4.659644779193536,-149.93634466258453,-149.93634466258453,-6.21277654011703,-145.8682662827301,-145.8682662827301,-3.4581527144978166,81.79746452964403,81.79746452964403
525000000,-10.629536904065816,5.232714588434062,5.232714588434062,-4.335916547710688,-150.18560287401496,-150.18560287401496,-6.232540955042547,-156.37854326234333,-156.37854326234333,-3.235717506409796,100.67526628682445,100.67526628682445
537500000,-11.556454488682203,30.35164990871338,30.35164990871338,-4.679640046315297,-150.62701728180272,-150.62701728180272,-5.436495408609031,-158.47286666513116,-158.47286666513116,-4.170454645669344,82.17739022402674,82.17739022402674
550000000,-11.049387196614886,36.50016891059967,36.50016891059967,-5.378788488550566,-153.00808267525142,-153.00808267525142,-4.9471736202140635,-159.98344703378913,-159.98344703378913,-5.098273621866099,75.33694875748964,75.33694875748964
562500000,-12.59093463948921,25.73783498997872,25.73783498997872,-5.77271053968539,-161.77347078495865,-161.77347078495865,-5.415850613761391,-159.54687800794292,-159.54687800794292,-5.052949834929485,63.72651486103528,63.72651486103528
575000000,-14.138696106739463,17.112848758301826,17.112848758301826,-5.189860312375566,-169.23937084795944,-169.23937084795944,-6.069417568201238,-161.61313566967678,-161.61313566967678,-3.4104146614788196,58.119212441722155,58.119212441722155
587500000,-13.752607740263688,11.499538989367613,11.499538989367613,-4.510891258442894,-173.56582855664684,-173.56582855664684,-6.329571818396449,-169.28946563311672,-169.28946563311672,-2.6159654719663568,61.80707384441409,61.80707384441409
600000000,-14.548296644118956,14.026522883024825,14.026522883024825,-4.324277786486675,-175.76881135766092,-175.76881135766092,-5.621088171323531,-174.31066972971456,-174.31066972971456,-3.611616493412422,64.26101156375384,64.26101156375384
612500000,-16.38910854158523,14.601219465151733,14.601219465151733,-4.212105667150732,179.0666757046492,-180.9333242953508,-5.143834544213846,-176.5929718003302,-176.5929718003302,-4.804387263637767,57.75085139282689,57.75085139282689
625000000,-17.116262415377996,11.779530274947493,11.779530274947493,-4.114366474533562,174.7397142056098,-185.2602857943902,-5.114761892373123,-179.03913169689042,-179.03913169689042,-4.394619333798129,46.92765320698302,46.92765320698302
637500000,-18.445678137405647,14.770394726948522,14.770394726948522,-4.044429961069099,171.54120719733845,-188.45879280266155,-4.735835128603683,171.70840972314306,-188.29159027685694,-3.5545058709614787,42.157669358827036,42.157669358827036
650000000,-18.934748876813956,13.039834345135711,13.039834345135711,-4.394243789740402,165.55349908659525,-194.44650091340475,-4.223740027017497,164.76916010023564,-195.23083989976436,-3.086101114028255,41.16671120987056,41.16671120987056
662500000,-21.149873052963652,-17.728412627307378,-17.728412627307378,-4.940213354025556,157.3581697242784,-202.6418302757216,-3.917080591542444,162.72719349590938,-197.27280650409062,-3.216835773750031,40.148782557566506,40.148782557566506
675000000,-23.655123761269184,-1.2842458804514134,-1.2842458804514134,-4.4407120841750665,145.19823384769853,-214.80176615230147,-4.177258192545326,156.84263090389146,-203.15736909610854,-4.149150451127007,31.147945766547632,31.147945766547632
687500000,-24.64240091189017,-37.90877833406225,-37.90877833406225,-3.729615932963151,141.3274506151988,-218.6725493848012,-5.088802338658844,150.5211606241502,-209.4788393758498,-4.371572427258688,23.248183971092484,23.248183971092484
700000000,-31.911708368074564,-11.614600521606066,-11.614600521606066,-3.975360265549619,138.97011958111045,-221.02988041888955,-5.587338653492472,140.2392027433592,-219.7607972566408,-3.69446353673653,12.539789000107566,12.539789000107566
712500000,-28.395033441375702,150.76683537242772,150.76683537242772,-4.885493840983115,134.18675153510753,-225.81324846489247,-5.231587650937235,129.79750325087133,-230.20249674912867,-3.3210151649266084,7.550920940735473,7.550920940735473
725000000,-22.55209503567137,166.2374428441648,166.2374428441648,-5.9429507281449245,122.05986511556118,-237.9401348844388,-4.774283182324265,130.08620367075727,-229.91379632924273,-3.8768408745803242,5.96093951589666,5.96093951589666
737500000,-22.471266059568265,137.25641751582867,137.25641751582867,-5.464320576725092,109.36180507694822,-250.6381949230518,-5.651481880592022,128.86650205232036,-231.13349794767964,-3.68216848516488,-5.027586160273678,-5.027586160273678
750000000,-20.807970274413094,122.8693228348667,122.8693228348667,-5.140403099380197,106.08155164797431,-253.91844835202568,-6.563438034943414,120.66190494289847,-239.33809505710153,-3.692701822304512,-9.420434882512062,-9.420434882512062
762500000,-16.628109191886594,116.24395304412747,116.24395304412747,-5.960523902218327,111.21988854653357,-248.78011145346642,-6.899556710716395,109.06470038728044,-250.93529961271958,-3.830422161293213,-14.910059921661505,-14.910059921661505
775000000,-17.405654152307374,121.62950459770315,121.62950459770315,-7.6667401773059165,106.11257314803052,-253.88742685196948,-6.090330970450494,101.97381453359819,-258.0261854664018,-4.084280953972716,-15.896637329456244,-15.896637329456244
787500000,7.009461978555027,-157.27851686109793,202.72148313890207,-8.116824637286008,135.51644239408847,-224.48355760591153,6.460930813290946,114.36116093041757,-245.63883906958245,-7.420373310964441,21.878335859140865,21.878335859140865
800000000,-15.373754582471994,112.6599400479807,112.6599400479807,-8.69640687892316,85.57725643837378,-274.42274356162625,-7.031101012391923,103.54782991310009,-256.4521700868999,-4.2542244658443975,-33.57421350176337,-33.57421350176337
812500000,-15.376293284046195,86.1449086999373,86.1449086999373,-7.915143964256368,79.86644104481175,-280.1335589551883,-8.56509887272267,99.71387278439401,-260.286127215606,-4.481556322535659,-33.790689585152535,-33.790689585152535
825000000,-14.362117433890951,87.64120548978345,87.64120548978345,-8.055967597631023,84.33280737617086,-275.6671926238291,-9.321013609903527,87.74224785313392,-272.2577521468661,-5.00968293078193,-32.39618834222734,-32.39618834222734
837500000,-13.783086616436929,93.32353287227518,93.32353287227518,-9.198058882001137,89.55379798434001,-270.44620201566,-8.769162172581353,77.99220060274264,-282.0077993972574,-6.077774181909607,-37.252824491505756,-37.252824491505756
850000000,-13.595650540686888,84.32260374681576,84.32260374681576,-10.991196594068404,81.41069269994593,-278.5893073000541,-8.122797665719665,75.22191846113735,-284.77808153886264,-6.690493631316117,-44.512557426622955,-44.512557426622955
862500000,-14.262492472551527,77.07582434215215,77.07582434215215,-11.799838017799157,71.11247035809801,-288.887529641902,-8.335964854361432,76.57111406634422,-283.4288859336558,-6.965884125807661,-48.09764123675818,-48.09764123675818
875000000,-13.522989245744776,59.837737254265676,59.837737254265676,-11.066636667535366,61.65917186113054,-298.3408281388695,-9.686309007904036,77.9346061634417,-282.0653938365583,-6.7551224328250035,-51.55511737274334,-51.55511737274334
887500000,-13.820933740936125,46.5692436364647,46.5692436364647,-10.58411803141254,58.01252436622664,-301.98747563377333,-10.953895942170986,71.59749245730033,-288.40250754269965,-7.135802223242342,-50.66138983472155,-50.66138983472155
900000000,-10.715446901121176,48.54114659967582,48.54114659967582,-10.966662887872008,60.206182154436235,-299.79381784556375,-11.803161977253684,59.274249677660784,-300.7257503223392,-7.452902906669657,-54.3129730440804,-54.3129730440804
912500000,-11.574691635196892,47.43613270997799,47.43613270997799,-12.267677479201225,61.86005752138708,-298.1399424786129,-11.96417974167918,50.38309619843825,-309.61690380156176,-7.575024269954267,-54.55408772369757,-54.55408772369757
925000000,-12.480985547224648,37.29434863970722,37.29434863970722,-13.259668919669005,56.09231441580522,-303.9076855841948,-11.4920925979094,47.6059677997488,-312.3940322002512,-9.146387241546964,-63.34067929920379,-63.34067929920379
937500000,-12.298998929368409,35.08058321888815,35.08058321888815,-14.32756055591726,44.10728626390334,-315.89271373609665,-11.843245195328105,46.49812096131844,-313.5018790386816,-8.579661073369913,-66.42719543837275,-66.42719543837275
950000000,-12.178957582969636,27.185583562497776,27.185583562497776,-14.318450454474297,39.55600718012699,-320.443992819873,-12.947216520904476,48.7226079471469,-311.2773920528531,-8.613230443597654,-65.11378804238244,-65.11378804238244
962500000,-11.087277596292818,26.18964623524986,26.18964623524986,-13.820198625429763,36.196122967225634,-323.8038770327744,-14.151404585605334,46.92041395734099,-313.079586042659,-9.912312770041968,-65.03885244284601,-65.03885244284601
975000000,-10.757365404572178,19.425846486713507,19.425846486713507,-14.209036518754438,37.02827521758062,-322.97172478241936,-15.323172652541398,37.37592376141519,-322.6240762385848,-11.13065018160896,-60.613419956766656,-60.613419956766656
987500000,-10.853148778141154,24.534908408296857,24.534908408296857,-15.360371668349408,38.52420094716642,-321.47579905283357,-15.326406774626435,30.005308146603923,-329.9946918533961,-12.698204087781226,-74.16828088426497,-74.16828088426497
1000000000,-11.217921262550306,17.21235118677001,17.21235118677001,-17.099034108658287,34.937446713441446,-325.06255328655857,-15.790692292755582,26.49484650318214,-333.50515349681785,-14.796200445034975,-89.09333402079756,-89.09333402079756
1012500000,-11.656514803078952,17.826796239198057,17.826796239198057,-17.53971481722481,31.395650785055338,-328.60434921494465,-15.835364892135122,26.695279061520342,-333.30472093847965,-12.291774529769889,-87.22029316122304,-87.22029316122304
1025000000,-11.652195560280795,13.051068736764558,13.051068736764558,-17.966702322655124,25.075307944398876,-334.9246920556011,-16.74581551796155,29.19073869237441,-330.8092613076256,-11.962025750176345,-83.70010819898715,-83.70010819898715
1037500000,-12.068097847190309,12.233508818605872,12.233508818605872,-18.002628201648964,23.220308158474438,-336.77969184152556,-17.225568580299566,30.16348947612952,-329.83651052387046,-12.639464488014415,-85.95618717635963,-85.95618717635963
1050000000,-10.23713091144427,17.86086648528883,17.86086648528883,-17.952509973007587,22.729290718011836,-337.27070928198816,-19.041943989481013,29.146831074649064,-330.85316892535093,-20.105984678536423,-97.34370526729197,-97.34370526729197
1062500000,-11.805162558909494,12.920657395048151,12.920657395048151,-19.23596947791123,26.23642494838818,-333.76357505161184,-19.11952018294679,20.853365515463718,-339.14663448453626,-15.962354376237977,-96.15763371225371,-96.15763371225371
1075000000,-12.069671383562383,8.504475016346193,8.504475016346193,-19.699916053369012,23.571022559827508,-336.4289774401725,-19.630289263444528,18.843308419915868,-341.15669158008416,-17.311988713798748,-107.42366887417936,-107.42366887417936
1087500000,-12.912717013171171,10.92248865836397,10.92248865836397,-20.634959074003838,18.514231591612905,-341.4857684083871,-19.6354903678153,15.327431242374082,-344.6725687576259,-17.774970869836313,-111.13916291820411,-111.13916291820411
1100000000,-13.41679719992702,10.20213882159755,10.20213882159755,-20.03622462299514,16.587334770855314,-343.4126652291447,-19.915660278103665,11.373912533220043,-348.62608746677995,-16.482513297238267,-112.4619144298516,-112.4619144298516
1112500000,-14.276258629564184,6.641278591007235,6.641278591007235,-20.195103275908565,19.136108861156874,-340.86389113884314,-20.727671558180468,11.132207173199438,-348.86779282680055,-16.78389746211274,-116.11369929421912,-116.11369929421912
1125000000,-14.579959769225646,0.39574821287031653,0.39574821287031653,-20.286196394778248,13.156884761150746,-346.84311523884924,-21.050714693252516,6.3753123447099185,-353.6246876552901,-19.028332265914834,-143.4318805600664,-143.4318805600664
1137500000,-14.605949832553966,5.485152545668816,5.485152545668816,-21.69126197944881,10.618949301801708,-349.3810506981983,-21.492790047563588,5.090026768706518,-354.90997323129346,-13.664256900045986,-124.87047262627155,-124.87047262627155
1150000000,-15.884391707451439,-0.04250074850372999,-0.04250074850372999,-21.927139059812003,14.484368450233472,-345.5156315497665,-21.85755251019147,4.46728760101021,-355.5327123989898,-14.089581663333837,-117.65146456952579,-117.65146456952579
1162500000,-17.863626174563496,-2.669708725589305,-2.669708725589305,-22.467968169111035,7.843411563135073,-352.1565884368649,-23.084450098633276,0.7729669782369254,-359.2270330217631,-16.477099743351687,-127.91682063600118,-127.91682063600118
1175000000,-18.196913319191623,-0.2921015145184092,-0.2921015145184092,-23.54346798378043,10.002821847991132,-349.99717815200887,-22.82401169314943,1.7744809197950162,-358.225519080205,-17.92694265924474,-130.51619897476047,-130.51619897476047
1187500000,-20.36400644708303,-12.28869365267506,-12.28869365267506,-25.361037719646227,7.825369259717993,-352.174630740282,-23.318880877235554,-3.1879508818149342,-363.1879508818149,-17.603798439512616,-140.35568580164147,-140.35568580164147
1200000000,-19.201764664682862,5.581589150945051,5.581589150945051,-24.500289741602582,3.1315623017474543,-356.86843769825254,-23.22564440663021,-2.24665896884719,-362.2466589688472,-15.523265282874474,-137.79852456313955,-137.79852456313955
1212500000,-19.665848564773192,-5.6229554805633315,-5.6229554805633315,-24.036163143824083,-2.695218154662897,-362.6952181546629,-24.09726416050697,-0.501882512552796,-360.5018825125528,-15.220081639927301,-136.04711874171136,-136.04711874171136
1225000000,-25.286940418854176,-7.030630503145836,-7.030630503145836,-25.810440755243697,-0.08413800196937021,-360.0841380019694,-25.197507072283422,-7.909857279558091,-367.9098572795581,-18.268844645154772,-131.13734756265637,-131.13734756265637
1237500000,-27.47233245743592,-10.384663749318289,-10.384663749318289,-26.89186849143404,5.400829987325491,-354.5991700126745,-26.010225203311293,-7.449225660509152,-367.44922566050917,-14.840876215524625,-145.22474710549739,-145.22474710549739
1250000000,-34.99445588379611,14.438362109468443,14.438362109468443,-27.508946691128358,6.22156685643608,-353.7784331435639,-26.442115809166943,-4.8493572803463385,-364.84935728034634,-18.092698169890895,-138.14435930607033,-138.14435930607033
1262500000,-33.0659018385273,-117.83307929402932,-117.83307929402932,-27.67739309572405,4.182543942410825,-355.8174560575892,-27.12544227383516,-2.947037271583319,-362.9470372715833,-15.742538661483497,-144.03202730054738,-144.03202730054738
1275000000,-35.36099288453115,-81.50035632950902,-81.50035632950902,-30.061992336646625,-5.989429019855222,-365.9894290198552,-29.506097828936745,11.714528744662179,-348.2854712553378,-16.254258967127917,-127.78708798398526,-127.78708798398526
1287500000,-28.665044994469234,-142.7687480815898,-142.7687480815898,-29.59375217717579,-0.7351042735306322,-360.7351042735306,-28.796255246160747,3.4496030559595066,-356.5503969440405,-15.397271978471935,-137.9583760345966,-137.9583760345966
1300000000,-23.863521701123354,178.97066263822612,-181.02933736177388,-30.401644058838833,-7.768069340387607,-367.7680693403876,-30.177714342888414,2.303260626653104,-357.6967393733469,-15.1403492917659,-128.3502202695867,-128.3502202695867
1312500000,-21.29812606606351,178.74595155843443,-181.25404844156557,-34.06025488562779,-15.102141355266127,-375.1021413552661,-30.22930935039267,-0.706679595059882,-360.7066795950599,-14.846280133236505,-140.1611874323459,-140.1611874323459
1325000000,-19.53788892136586,-167.490859074125,-167.490859074125,-32.105784820396195,10.844763514183219,-349.1552364858168,-29.774343613172796,4.2390272489422,-355.7609727510578,-13.973901094993543,-137.6254864916353,-137.6254864916353
1337500000,-19.294654642465144,-164.00759684332826,-164.00759684332826,-34.00849186471278,6.669315581595048,-353.3306844184049,-32.86471560951375,15.804728265964085,-344.19527173403594,-13.336333033422497,-137.11715980592487,-137.11715980592487
1350000000,-19.258625198288655,-171.54872281948244,-171.54872281948244,-38.374890404652135,6.587426084217697,-353.41257391578233,-32.75022282050495,2.101884028709906,-357.8981159712901,-14.73444823190384,-118.59464380167822,-118.59464380167822
1362500000,-18.23684269919491,-170.89423322315068,-170.89423322315068,-33.23436727364899,11.315736421659391,-348.6842635783406,-36.170943309134735,28.170436182045144,-331.82956381795486,-14.115585216525675,-133.7515677214595,-133.7515677214595
1375000000,-18.4142960971228,173.36081543209212,-186.63918456790788,-35.66165245215713,40.158774142848294,-319.8412258571517,-32.694739551624615,21.622219126832107,-338.3777808731679,-13.79634073501807,-123.19838074838539,-123.19838074838539
1387500000,-18.582300793885366,-178.14269901379305,-178.14269901379305,-39.38116680449133,13.23956031491805,-346.76043968508196,-34.47809965205486,27.274131603883003,-332.725868396117,-13.982996454709244,-138.99556783223107,-138.99556783223107
1400000000,-18.093202159884644,164.23825592334873,-195.76174407665127,-43.76412926829545,107.63410204412962,-252.36589795587037,-36.300267898349766,75.48742496945304,-284.51257503054694,-14.345128080849944,-133.9277977360703,-133.9277977360703
1412500000,-18.094558406475002,172.93845487625995,-187.06154512374005,-35.16709409890751,95.23639955380825,-264.76360044619173,-35.67992357452597,72.58262105008906,-287.4173789499109,-13.851194441145884,-125.17553966504764,-125.17553966504764
1425000000,-18.247661700566546,165.38235829080273,-194.61764170919727,-37.87500438492282,95.7358466229354,-264.2641533770646,-36.558522622408695,80.07986325218455,-279.92013674781543,-13.605715457601262,-119.61250026403114,-119.61250026403114
1437500000,-19.039157126437473,163.74393176753003,-196.25606823246997,-35.835792288280004,96.63313496041546,-263.3668650395845,-36.588043367913144,75.48394014598264,-284.5160598540174,-16.40547714558911,-118.95941124910996,-118.95941124910996
1450000000,-18.96872456831489,161.25387929722237,-198.74612070277763,-32.15550619796483,90.97003066004515,-269.02996933995485,-31.063993605611252,88.79210735185131,-271.2078926481487,-15.017688429018463,-128.50686611013958,-128.50686611013958
1462500000,-19.415865781000644,137.78459695092326,-222.21540304907674,-31.752950291497225,102.91613489044582,-257.08386510955415,-28.587986710049066,93.3919589546079,-266.6080410453921,-15.625327627140322,-133.2909518829349,-133.2909518829349
1475000000,-16.419193334743106,135.20562205843783,-224.79437794156217,-30.920868269914227,99.42764313681357,-260.5723568631864,-27.982229756195412,107.71869124397297,-252.28130875602704,-14.366952235176026,-132.65756955128708,-132.65756955128708
1487500000,-16.129829662531847,111.75587614529402,-248.24412385470598,-28.000334778783724,111.78314118084064,-248.21685881915937,-26.20173270985842,102.49932569672478,-257.5006743032752,-13.05552641385199,-149.8709704990177,-149.8709704990177
1500000000,-16.101423599072152,114.0176976120296,-245.9823023879704,-30.583498058469054,132.5377764202547,-227.4622235797453,-27.08147897223913,108.35519419892688,-251.64480580107312,-12.195793031551744,-134.63347494908632,-134.63347494908632
1512500000,-15.446566322084344,118.81929370370972,-241.18070629629028,-29.157651641631954,106.6568588573157,-253.34314114268432,-25.8528267993852,100.49887940747821,-259.5011205925218,-14.274248902292388,-152.77181750092896,-152.77181750092896
