Frequency[Hz],S11/dB,S11/phase[deg],S11/unwrapped_phase[deg],S12/dB,S12/phase[deg],S12/unwrapped_phase[deg],S21/dB,S21/phase[deg],S21/unwrapped_phase[deg],S22/dB,S22/phase[deg], S22/unwrapped_phase[deg]
500000000,-10.928994361009751,44.00395875149755,44.00395875149755,-5.915978755283095,-145.21144355633513,-145.21144355633513,-5.782677152595993,-139.7962953938128,-139.7962953938128,-5.005882448961044,82.22672046801635,82.22672046801635
512500000,-11.194827018363963,37.724510592109056,37.724510592109056,-4.685333059212921,-151.03762581666172,-151.03762581666172,-6.182317450016928,-146.3967911768698,-146.3967911768698,-3.3137955199268387,79.44490019527686,79.44490019527686
525000000,-11.258852501939959,21.434526117521653,21.434526117521653,-4.3690355390867825,-149.67319072143263,-149.67319072143263,-5.995755658101778,-156.207438413331,-156.207438413331,-3.863915173712911,104.10209712361649,104.10209712361649
537500000,-11.511756743480682,35.40144440548691,35.40144440548691,-4.552622653667819,-150.5250303448286,-150.5250303448286,-5.394242703464204,-158.83244314038228,-158.83244314038228,-4.084223919277938,83.6296805094518,83.6296805094518
550000000,-11.353593871855397,33.11880457209353,33.11880457209353,-5.336810222003352,-154.08753065890323,-154.08753065890323,-4.982766404915458,-159.00697709896156,-159.00697709896156,-5.267859012350538,78.86291846786092,78.86291846786092
562500000,-12.669886664152,27.499422457863485,27.499422457863485,-5.669866210380663,-161.11226147904597,-161.11226147904597,-5.320266638794635,-160.22306751591768,-160.22306751591768,-4.634883185992908,63.63528485720705,63.63528485720705
575000000,-13.852861848443352,18.20185087226412,18.20185087226412,-5.206818529227622,-169.32826456331412,-169.32826456331412,-6.007046427308836,-161.63344980674916,-161.63344980674916,-3.5482902923980744,59.13270937801317,59.13270937801317
587500000,-14.161024330228095,15.674983003996076,15.674983003996076,-4.438814591550858,-173.00293975091174,-173.00293975091174,-6.189349804002124,-168.92079883148733,-168.92079883148733,-2.9061770362843102,61.666734924399606,61.666734924399606
600000000,-14.523502101543414,14.723967447302169,14.723967447302169,-4.321651254222406,-175.59138602683615,-175.59138602683615,-5.659283481280529,-174.37957342264144,-174.37957342264144,-3.6296478680554034,63.61434029044767,63.61434029044767
612500000,-15.753618199521785,17.736948104461103,17.736948104461103,-4.254759210045194,179.14536696482145,-180.85463303517855,-5.148615678738232,-176.80356457473025,-176.80356457473025,-4.744249166663311,58.11257243835625,58.11257243835625
625000000,-17.708111127605704,11.737066566518363,11.737066566518363,-4.167063523447243,174.3198107391342,-185.6801892608658,-5.104880603602545,-179.9086161032295,-179.9086161032295,-4.413482161541486,47.91247899198765,47.91247899198765
637500000,-19.074193275881036,13.02623703103842,13.02623703103842,-4.016268487827633,171.82759158864565,-188.17240841135435,-4.707693134758287,171.78906416527383,-188.21093583472617,-3.502845475343202,41.00832268873108,41.00832268873108
650000000,-20.327857078991045,6.6205423852394185,6.6205423852394185,-4.44734587064925,165.57621538300046,-194.42378461699954,-4.220228627158603,165.0432393782295,-194.9567606217705,-3.1926235643899736,40.31514406857838,40.31514406857838
662500000,-20.85740632112153,-4.9361018454280075,-4.9361018454280075,-4.8049019324721085,156.4111834682043,-203.5888165317957,-3.932618370172849,162.78074767023602,-197.21925232976398,-3.36435952208268,38.93276428992217,38.93276428992217
675000000,-25.17509908982035,-7.33474464637798,-7.33474464637798,-4.433859289297704,145.13234342122084,-214.86765657877916,-4.182692184598592,156.450966253732,-203.549033746268,-4.064925688727325,31.71055580072137,31.71055580072137
687500000,-24.434172599821387,-52.426366731658305,-52.426366731658305,-3.7216652127732863,140.60523753063558,-219.39476246936442,-5.093647600692426,149.72456952111753,-210.27543047888247,-4.372960052926183,23.710879349673995,23.710879349673995
700000000,-28.99900882371591,-13.652326677752763,-13.652326677752763,-3.8580392843184703,139.59341720468524,-220.40658279531476,-5.662704924373793,140.85959024705542,-219.14040975294458,-3.664805665193512,13.888555963846041,13.888555963846041
712500000,-27.87641342001657,156.80279909666157,156.80279909666157,-4.895587159820868,134.3973214809695,-225.6026785190305,-5.207534748871257,130.66181425340807,-229.33818574659193,-3.1780200809626518,9.085567017477883,9.085567017477883
725000000,-22.215248136334765,167.2095783026605,167.2095783026605,-5.921983375576227,122.63202310170936,-237.36797689829064,-4.733276474792185,129.96053704411696,-230.03946295588304,-3.654827613727671,5.416171420508322,5.416171420508322
737500000,-22.663291312962926,145.5946304662418,145.5946304662418,-5.638310033199156,109.97238266836774,-250.02761733163226,-5.675370401631405,129.4227776071824,-230.5772223928176,-3.5493306121337804,-2.638338220646197,-2.638338220646197
750000000,-20.306718241554744,125.05206623026262,125.05206623026262,-5.083726347447283,106.63003389081268,-253.36996610918732,-6.634351804929213,120.27855463810984,-239.72144536189018,-4.031810999755786,-8.594301777422617,-8.594301777422617
762500000,-17.393750711192656,111.39960045179127,111.39960045179127,-5.873903946294749,110.00102693577335,-249.99897306422665,-6.880519669078882,108.5715998949598,-251.4284001050402,-3.6868542313364965,-13.894097306172696,-13.894097306172696
775000000,-16.361412787000333,119.3531596212057,119.3531596212057,-7.672538090257718,106.32662403738766,-253.67337596261234,-5.946656207386728,102.51218793708732,-257.48781206291267,-4.39725954211358,-15.340277240574087,-15.340277240574087
787500000,-10.125736835902295,-93.36945242681539,266.63054757318463,-2.126731807120395,116.10564305962737,-243.89435694037263,-4.273695576679468,-172.55672764697198,-172.55672764697198,-2.9759427304503756,-12.412755022194997,-12.412755022194997
800000000,-16.018130786808662,107.21496905671977,107.21496905671977,-8.696787673530753,83.52096024158283,-276.4790397584172,-7.052721199022121,102.91079278419795,-257.08920721580205,-4.128239347465763,-35.10978835631009,-35.10978835631009
812500000,-16.410588653696763,89.69648293868235,89.69648293868235,-8.011358345672635,80.69305347620609,-279.3069465237939,-8.673486308630187,99.02244459474339,-260.9775554052566,-4.564865500866703,-34.038078715829826,-34.038078715829826
825000000,-14.48488572224165,85.82123840697787,85.82123840697787,-8.114517023948425,85.07489572011907,-274.92510427988094,-9.306587651788723,88.58207876273559,-271.4179212372644,-5.085673311789102,-34.13487569829899,-34.13487569829899
837500000,-13.246591435752586,88.19279920886626,88.19279920886626,-9.337811464304322,89.91202639168682,-270.0879736083132,-8.735645498396064,76.91405189886346,-283.0859481011365,-6.21653811068334,-36.10833287936464,-36.10833287936464
850000000,-13.416042351516468,84.03480738943765,84.03480738943765,-10.890488157007079,81.34073852690732,-278.65926147309267,-8.177789618875487,74.74409036758813,-285.2559096324119,-6.919656813506233,-43.81885183074604,-43.81885183074604
862500000,-14.30384660233775,75.11990430155817,75.11990430155817,-11.939482578472287,68.46797990666552,-291.5320200933345,-8.320586017365383,76.91114252007013,-283.08885747992986,-6.682071896033169,-48.68866983266301,-48.68866983266301
875000000,-12.862793881332102,59.136769938160754,59.136769938160754,-11.184304371086853,60.38980407867494,-299.61019592132504,-9.419077232688103,77.15844853111979,-282.8415514688802,-6.983697764388758,-48.88780635571142,-48.88780635571142
887500000,-13.124781707949698,44.6805716375993,44.6805716375993,-10.586546426245107,59.18139405194412,-300.8186059480559,-10.796830648713014,69.94809527092478,-290.0519047290752,-6.9754647492773465,-51.68402595673202,-51.68402595673202
900000000,-11.153569117857813,45.4788327476345,45.4788327476345,-10.999231643347096,60.443598176720165,-299.5564018232798,-11.543769922657741,59.628458841987836,-300.3715411580122,-7.390016088891852,-52.22138924227361,-52.22138924227361
912500000,-11.417311345634875,47.49638173652414,47.49638173652414,-12.438489249385627,61.33000185950039,-298.6699981404996,-11.88678270135779,51.62032802008831,-308.3796719799117,-7.703267367487607,-55.467924390165706,-55.467924390165706
925000000,-11.928001962611493,44.86517656379174,44.86517656379174,-13.645267289734182,54.57348891208157,-305.4265110879184,-11.726186042248408,47.5803160136326,-312.41968398636743,-9.394760818436957,-63.95019878536793,-63.95019878536793
937500000,-12.15217969091798,32.92709208034102,32.92709208034102,-14.53928237952471,44.5864276559711,-315.4135723440289,-11.773872923316713,47.881509813958566,-312.1184901860414,-8.423322817689376,-62.98058848488622,-62.98058848488622
950000000,-11.651927525245046,28.6830509688287,28.6830509688287,-14.355935866272612,39.8574506693373,-320.1425493306627,-12.97519163562745,46.94205458803753,-313.05794541196246,-8.014740258404489,-66.91774302476942,-66.91774302476942
962500000,-10.966272612055421,24.000464478466334,24.000464478466334,-14.410295905762748,34.435001554071,-325.564998445929,-14.252810995250286,44.34488453401396,-315.65511546598606,-10.26368858312061,-64.94506687166425,-64.94506687166425
975000000,-10.908887662372917,21.246537684871008,21.246537684871008,-14.237886206022349,36.48583925335825,-323.5141607466418,-15.355184538693303,38.93286142507962,-321.06713857492036,-11.665346750723465,-65.1666723935031,-65.1666723935031
987500000,-11.09957650467571,22.809454944431412,22.809454944431412,-15.326688481231258,37.72703337354386,-322.27296662645614,-15.423118696539317,28.714962401913198,-331.2850375980868,-12.62634002676666,-73.78457969485729,-73.78457969485729
1000000000,-11.405649199807137,15.046806563878816,15.046806563878816,-16.509328503942385,35.66488720537039,-324.3351127946296,-16.037430926818157,26.680146732363074,-333.3198532676369,-14.046116793770395,-78.25740436485172,-78.25740436485172
1012500000,-11.61595126334018,18.219495179963875,18.219495179963875,-17.547346511986397,31.225025431066342,-328.77497456893366,-15.68115037690745,26.990247480534876,-333.0097525194651,-12.52855786835763,-88.57212278295238,-88.57212278295238
1025000000,-11.213324335442268,10.009070649236696,10.009070649236696,-17.936312179005167,25.78350852507585,-334.21649147492417,-16.78916987401712,28.742663385923372,-331.2573366140766,-12.657066816196798,-84.76530587788116,-84.76530587788116
1037500000,-12.325049151287612,13.019755955518736,13.019755955518736,-17.802941149901592,23.256719291425345,-336.7432807085747,-17.439118455220036,29.536079247310642,-330.4639207526894,-12.682600008092688,-82.9927956722089,-82.9927956722089
1050000000,-10.549010858671114,19.27134380033404,19.27134380033404,-17.87231286479438,20.861842406207703,-339.1381575937923,-18.010650125494227,27.989842324664895,-332.0101576753351,-20.150334173667858,-93.40532754629902,-93.40532754629902
1062500000,-11.748602514834921,11.219988823783126,11.219988823783126,-18.6502253705708,24.40814128235161,-335.5918587176484,-19.632682746978027,21.456135603503764,-338.54386439649625,-15.722479539190763,-100.95624753488059,-100.95624753488059
1075000000,-12.107986479521793,12.24577687852734,12.24577687852734,-19.57332482995376,21.242046648037093,-338.7579533519629,-19.42008352202292,15.477160787520338,-344.52283921247965,-17.051378626473376,-104.96240981252969,-104.96240981252969
1087500000,-12.51108414568004,6.948141787842692,6.948141787842692,-20.01340303650814,18.74396102166799,-341.256038978332,-19.551277114467755,13.534195561613709,-346.4658044383863,-17.088539023556727,-114.27234097103302,-114.27234097103302
1100000000,-13.524723414734474,7.440608916807789,7.440608916807789,-20.09365465916256,18.827899622189936,-341.17210037781007,-19.607328820871047,11.693107654356602,-348.3068923456434,-15.21672370179292,-114.9721118772911,-114.9721118772911
1112500000,-13.235144041432408,6.230335987527737,6.230335987527737,-20.915521310162667,14.25249571708403,-345.747504282916,-20.782643641647986,15.397613516678016,-344.602386483322,-15.838956972561016,-107.8938697339739,-107.8938697339739
1125000000,-13.755331388715549,3.668087376516183,3.668087376516183,-21.150506816119965,15.614449341281528,-344.38555065871844,-20.936679359674027,5.9677083110006794,-354.0322916889993,-16.86060781568952,-140.54892016284222,-140.54892016284222
1137500000,-13.598420176754649,2.449130687826916,2.449130687826916,-21.143432340500357,13.848011736062281,-346.1519882639377,-21.489521405909628,4.671492321958781,-355.3285076780412,-15.218287911991508,-129.11821935725902,-129.11821935725902
1150000000,-16.01444538085671,-1.5563763344357275,-1.5563763344357275,-21.175842562034664,5.449733039066814,-354.5502669609332,-22.006822331806003,4.889957313785706,-355.1100426862143,-16.838719097751316,-123.18850290978433,-123.18850290978433
1162500000,-16.20966916127363,4.7686942740478,4.7686942740478,-22.92445938460629,11.783382483020663,-348.21661751697934,-22.377382267874385,5.068190105034583,-354.9318098949654,-17.556396824743093,-137.92560941267953,-137.92560941267953
1175000000,-17.979512729834134,-4.939424607945527,-4.939424607945527,-22.541633577816995,7.390396124138876,-352.6096038758611,-22.972354236917457,-1.3878386373787497,-361.38783863737876,-17.588197656834183,-139.16364480530672,-139.16364480530672
1187500000,-20.19234486815769,-0.2010091367112343,-0.2010091367112343,-22.975388022357826,2.139736865419217,-357.8602631345808,-23.234682627933232,4.410199674846757,-355.58980032515325,-15.236364649380736,-144.89662555589564,-144.89662555589564
1200000000,-20.328798617490893,2.0793480815201004,2.0793480815201004,-23.761939899569292,1.694479106716178,-358.3055208932838,-24.173327163866173,1.8649035824149598,-358.13509641758503,-16.412930468399207,-133.6101274354026,-133.6101274354026
1212500000,-21.043439907503707,0.44287635114833607,0.44287635114833607,-24.21695329825843,-1.4915277961679345,-361.49152779616793,-24.74519857022368,0.4247004568578908,-359.57529954314214,-14.71908794126644,-148.8650093696682,-148.8650093696682
1225000000,-24.02742873771951,-26.776073731674206,-26.776073731674206,-25.98697917367316,1.7674705890732783,-358.2325294109267,-24.868282968992364,-0.03836561554370704,-360.0383656155437,-16.329281995779183,-139.44502041158017,-139.44502041158017
1237500000,-27.820299190421096,-3.801806654716318,-3.801806654716318,-27.469205284206907,1.6099728937628408,-358.39002710623714,-25.796002633695352,-6.315315384206596,-366.3153153842066,-15.239333244606986,-145.1127769786125,-145.1127769786125
1250000000,-25.799273584320623,-5.766473462248873,-5.766473462248873,-27.76115405021759,0.9236643684416417,-359.0763356315584,-25.880332366897804,4.165331027688062,-355.83466897231193,-16.90891755331303,-133.33601221903217,-133.33601221903217
1262500000,-37.321056308209876,-130.01629963989748,-130.01629963989748,-28.360354274174142,-1.335364180622849,-361.33536418062283,-27.099924890611923,7.1431174985642,-352.8568825014358,-16.050721989359108,-138.98392278056733,-138.98392278056733
1275000000,-30.890522538107486,-102.06853154965728,-102.06853154965728,-30.24358635384584,3.2895353181558606,-356.71046468184414,-27.492243837157947,1.6394518340297912,-358.3605481659702,-15.556440309972741,-137.08642085425532,-137.08642085425532
1287500000,-29.466195105986166,178.0888106972051,-181.9111893027949,-31.482482039019423,0.9418534634458195,-359.0581465365542,-28.153849309620767,-0.40828885309636725,-360.4082888530964,-14.439154527992422,-130.5595731437235,-130.5595731437235
1300000000,-25.163010746569373,-174.31963326221907,-174.31963326221907,-33.95015937144439,-9.528124893329576,-369.52812489332956,-29.285742949324263,-7.822948320988469,-367.8229483209885,-13.535202183726845,-126.2221815634837,-126.2221815634837
1312500000,-22.418814331031975,-167.87743785114986,-167.87743785114986,-32.12564202469568,0.7714338419802054,-359.2285661580198,-30.708233417333087,9.994366961272892,-350.0056330387271,-16.381894326516136,-138.7110694698541,-138.7110694698541
1325000000,-21.689601446560438,-174.3872607217171,-174.3872607217171,-34.097973716027866,22.914605115959123,-337.08539488404085,-30.722575974937115,6.345144149550403,-353.6548558504496,-13.602537849897725,-141.8764441075768,-141.8764441075768
1337500000,-19.06796141445792,-168.69000187878186,-168.69000187878186,-34.152464755664305,39.946173628466696,-320.0538263715333,-34.379714971966415,5.68837050112972,-354.3116294988703,-13.187887755232971,-141.4083468097367,-141.4083468097367
1350000000,-20.52866405783526,-157.6333446786662,-157.6333446786662,-37.10165595028323,35.34428049993122,-324.65571950006876,-32.8826181016253,2.53519965500633,-357.46480034499365,-13.878450761386432,-130.84718351040158,-130.84718351040158
1362500000,-17.723062711413505,-174.4142185940768,-174.4142185940768,-38.444139351735615,3.1512667941804695,-356.84873320581954,-34.29996765411778,1.085335079055382,-358.91466492094463,-12.860687214630072,-135.59705223090901,-135.59705223090901
1375000000,-19.011174076612562,173.66015947198838,-186.33984052801162,-41.43921054648183,5.152363477156218,-354.8476365228438,-32.296822385090024,25.52310454911206,-334.4768954508879,-14.829774428951376,-122.9190102468024,-122.9190102468024
1387500000,-17.683211334144108,172.36620104668012,-187.63379895331988,-40.33903083366292,22.17668294588286,-337.8233170541171,-36.739732024159025,44.34333599276415,-315.65666400723586,-13.938246849866132,-125.79166878091779,-125.79166878091779
1400000000,-17.561831977020855,166.07366609701862,-193.92633390298138,-39.79702651415993,41.454104316239516,-318.5458956837605,-33.781569267014376,67.94524344280536,-292.05475655719465,-16.102903121416144,-143.86945179826188,-143.86945179826188
1412500000,-18.67595348528237,176.05582903285548,-183.94417096714452,-39.921887595024764,84.40595822647917,-275.5940417735208,-51.16377052263865,84.56502163950209,-275.4349783604979,-13.9980998517463,-134.19689511455397,-134.19689511455397
1425000000,-18.224222417490783,159.789659250386,-200.210340749614,-35.663353184570475,81.86963194292886,-278.1303680570711,-37.36674985745748,94.50334847945746,-265.4966515205425,-13.895436139824662,-129.31371506775523,-129.31371506775523
1437500000,-19.020680706522032,162.2525820237812,-197.7474179762188,-37.22195456612232,138.8426442229219,-221.1573557770781,-33.12316363427736,72.05637025902345,-287.9436297409766,-16.281605761873827,-123.69383790869132,-123.69383790869132
1450000000,-17.59133496737551,157.97146270635477,-202.02853729364523,-35.38088323151992,95.35889547573716,-264.64110452426286,-33.48535993454119,100.03393812417616,-259.9660618758238,-14.821995122382088,-142.5470969420361,-142.5470969420361
1462500000,-19.275277595643484,157.55663792141135,-202.44336207858865,-30.786105282923817,102.696216094666,-257.303783905334,-30.02844821952291,93.49031194043863,-266.50968805956137,-16.391539334405007,-133.3520721503461,-133.3520721503461
1475000000,-17.302914151000298,135.25041029402524,-224.74958970597476,-28.886195422301014,119.30515532440805,-240.69484467559195,-27.281050411217503,106.71371934446734,-253.28628065553266,-14.27595600162704,-141.86571409216097,-141.86571409216097
1487500000,-17.719754586552348,112.74532140370295,-247.25467859629705,-28.824271176679105,129.11363887025843,-230.88636112974157,-26.46487052590606,118.2332768027509,-241.76672319724912,-12.88627541534238,-136.22509351913925,-136.22509351913925
1500000000,-17.673733037635518,108.52935986086679,-251.4706401391332,-27.854786563422035,118.52597493905566,-241.47402506094434,-26.04042735519513,99.92169496469337,-260.07830503530664,-12.414461861904902,-142.2439461037657,-142.2439461037657
1512500000,-15.143765491995914,124.97490299219189,-235.0250970078081,-30.535404233952296,115.04198476550604,-244.95801523449396,-26.01370298086703,96.59750437992747,-263.4024956200725,-14.769799485926576,-157.61663968283491,-157.61663968283491
