Frequency[Hz],S11/dB,S11/phase[deg],S11/unwrapped_phase[deg],S12/dB,S12/phase[deg],S12/unwrapped_phase[deg],S21/dB,S21/phase[deg],S21/unwrapped_phase[deg],S22/dB,S22/phase[deg], S22/unwrapped_phase[deg]
500000000,-11.84249173706133,42.03893313738221,42.03893313738221,-5.475076908928635,-81.4710080354779,-81.4710080354779,-4.500609008497969,-76.63684453934013,-76.63684453934013,-4.433807473865863,78.13873976006694,78.13873976006694
512500000,-10.72832140677196,32.97322413081045,32.97322413081045,-5.0481574362176485,-88.43492538146351,-88.43492538146351,-5.167980413069007,-78.92991622960238,-78.92991622960238,-3.9638545438727064,81.78442057798473,81.78442057798473
525000000,-11.262583211587662,13.738860217065314,13.738860217065314,-4.075592546020442,-90.30538942858286,-90.30538942858286,-6.229544847524437,-84.29030781256876,-84.29030781256876,-3.897573457997337,88.44944780290537,88.44944780290537
537500000,-12.151760692627478,31.400787190696402,31.400787190696402,-3.6873009262473415,-87.39002700260944,-87.39002700260944,-5.718479100140491,-91.97450568174914,-91.97450568174914,-4.974334174518622,83.29413465762852,83.29413465762852
550000000,-11.83905581160828,23.581561838911274,23.581561838911274,-4.435299698245131,-85.48187099016984,-85.48187099016984,-5.037415540719018,-97.43897221366453,-97.43897221366453,-5.465195517479895,73.7743960892271,73.7743960892271
562500000,-12.8307083889559,23.21160922073937,23.21160922073937,-5.530628537653403,-88.48894678161501,-88.48894678161501,-4.453100324310407,-95.87353878775204,-95.87353878775204,-5.279698168464428,61.731037990652005,61.731037990652005
575000000,-13.506368414257135,5.313210593968764,5.313210593968764,-6.0704497542118805,-96.56469432001603,-96.56469432001603,-4.8603488720305945,-91.37922835108287,-91.37922835108287,-4.225883936824527,59.12165702614138,59.12165702614138
587500000,-13.330773891064066,1.5753367077910603,1.5753367077910603,-5.23278432911353,-105.26190691892613,-105.26190691892613,-5.914534683950853,-92.57799001605368,-92.57799001605368,-3.5139566978489127,64.63437737176214,64.63437737176214
600000000,-14.22677880103797,-5.568324103072944,-5.568324103072944,-3.9921921760704175,-106.34987572578147,-106.34987572578147,-6.648970066975211,-97.13443644910933,-97.13443644910933,-4.554579913782898,61.44815663985968,61.44815663985968
612500000,-14.832394039310405,-13.018111764650493,-13.018111764650493,-3.387957148467464,-102.0855669726211,-102.0855669726211,-6.401348046210615,-106.16296397684474,-106.16296397684474,-4.577508006120248,56.40136668435429,56.40136668435429
625000000,-14.98961395575154,-37.75444680372193,-37.75444680372193,-4.393462091065551,-101.86405997492533,-101.86405997492533,-5.2641353123662915,-109.55459876611383,-109.55459876611383,-4.764052841732931,41.61063544723835,41.61063544723835
637500000,-16.5074217671966,-45.894706500571694,-45.894706500571694,-5.13368355438009,-110.5320013228049,-110.5320013228049,-4.6497740394356075,-109.37416905522393,-109.37416905522393,-3.713496551791517,40.62977819433744,40.62977819433744
650000000,-17.5652398246747,-33.68534184504842,-33.68534184504842,-5.805809692699184,-119.34994335451051,-119.34994335451051,-5.058989040060879,-111.27892800521572,-111.27892800521572,-4.508634782392547,38.022230480799934,38.022230480799934
662500000,-20.651949472608074,-37.16179616190544,-37.16179616190544,-5.38103577476682,-125.5968223282445,-125.5968223282445,-6.056473872366311,-117.38524896514942,-117.38524896514942,-4.7163660029455166,35.043916694050665,35.043916694050665
675000000,-23.110025921455453,-73.90499960413331,-73.90499960413331,-5.500040283336276,-128.4418342967679,-128.4418342967679,-6.4253781030459445,-122.55188949953377,-122.55188949953377,-4.5956150267325775,22.0078892927219,22.0078892927219
687500000,-20.12418563130728,-97.2723929387841,-97.2723929387841,-6.020902338874049,-126.29686261824122,-126.29686261824122,-6.790351724463032,-126.63775314852532,-126.63775314852532,-4.318299635748888,19.546541985692766,19.546541985692766
700000000,-19.075171460616396,-96.12659298437288,-96.12659298437288,-7.180374916440007,-126.51874772454266,-126.51874772454266,-7.187793355928824,-126.97576220517215,-126.97576220517215,-4.167356691695795,11.415498988872972,11.415498988872972
712500000,-22.06581500829944,-110.85768051101977,-110.85768051101977,-8.55860378138191,-133.4101097643428,-133.4101097643428,-7.844244771238923,-126.35329116521805,-126.35329116521805,-4.433068895898879,9.458729895257628,9.458729895257628
725000000,-23.70675252236946,-131.68301671712157,-131.68301671712157,-8.73866014799318,-136.993002427356,-136.993002427356,-8.655769801612575,-122.68598543032715,-122.68598543032715,-4.183664166834891,0.07454392639066638,0.07454392639066638
737500000,-23.090577423830055,-134.2200120348927,-134.2200120348927,-8.389274568586526,-137.99646303499776,-137.99646303499776,-10.290706110026306,-121.90309326236064,-121.90309326236064,-4.314422135515529,-2.9224958988238083,-2.9224958988238083
750000000,-21.453070263143058,-161.13278545458672,-161.13278545458672,-8.9234449914772,-132.38577274055876,-132.38577274055876,-10.71708426493878,-129.34795418789173,-129.34795418789173,-4.253976896734765,-6.237965750832345,-6.237965750832345
762500000,-21.97665316069111,-178.18014450158978,-178.18014450158978,-10.490775054688052,-127.48981415404859,-127.48981415404859,-10.06047277277222,-130.12169204054285,-130.12169204054285,-4.384543594143936,-15.043522937787884,-15.043522937787884
775000000,-22.595170780121197,155.37020602854923,-204.62979397145077,-11.928375513439526,-128.14175363656724,-128.14175363656724,-9.735890863806683,-123.78112904134966,-123.78112904134966,-4.868041862243119,-20.009484811369106,-20.009484811369106
787500000,1.2454153975919138,172.60497494743464,-187.39502505256536,-16.84485830998108,-68.15120451994481,-68.15120451994481,-20.85290694536603,126.69501260356921,-233.3049873964308,-15.178030441205706,-76.80434603951105,-76.80434603951105
800000000,-21.98964108646311,137.5665933097675,-222.4334066902325,-11.621982400880576,-129.38931275865508,-129.38931275865508,-10.75735860409253,-107.73570991990658,-107.73570991990658,-4.46251936080153,-34.15481419067487,-34.15481419067487
812500000,-18.04448110336633,111.1416699010493,-248.85833009895072,-10.037975576218596,-120.53725750816244,-120.53725750816244,-11.255118761472858,-108.4300637326869,-108.4300637326869,-4.328613128651132,-32.236037931344384,-32.236037931344384
825000000,-20.053595115727116,97.23713805671287,-262.76286194328713,-10.01386690039366,-111.24273059479926,-111.24273059479926,-11.00924266675885,-109.20168293650106,-109.20168293650106,-5.1777165296295244,-35.051498828512656,-35.051498828512656
837500000,-15.725494788957386,93.02986015316918,-266.9701398468308,-10.345592715671888,-102.6124326830983,-102.6124326830983,-9.542905994455117,-113.41914752217535,-113.41914752217535,-6.033974002685229,-34.958014559405,-34.958014559405
850000000,-16.830811738591066,98.55273345977605,-261.44726654022395,-10.646917760751203,-104.12297118529187,-104.12297118529187,-8.345279017446128,-109.5488006653436,-109.5488006653436,-5.655284026982224,-44.729914987868135,-44.729914987868135
862500000,-16.01721547229636,89.52006052739785,-270.47993947260215,-10.454425906927334,-111.76242070912468,-111.76242070912468,-7.321940687332246,-105.03781132305058,-105.03781132305058,-6.122349185482458,-47.586366268052416,-47.586366268052416
875000000,-15.973882178746601,60.84003546348623,-299.15996453651377,-9.085315713789914,-116.59632242277947,-116.59632242277947,-7.36036817257439,-100.5668293065346,-100.5668293065346,-5.378292111320788,-47.41623604041136,-47.41623604041136
887500000,-14.951561703592615,52.86493095000538,-307.1350690499946,-7.386541892875725,-116.22511592811439,-116.22511592811439,-7.857791130773505,-102.9705905902513,-102.9705905902513,-5.900573881565747,-51.887941949148264,-51.887941949148264
900000000,-13.41504086220506,43.226080959885664,-316.7739190401143,-6.771702848849873,-110.34150400890478,-110.34150400890478,-7.836245217892058,-113.20384802377059,-113.20384802377059,-6.603619627001372,-47.97761231144498,-47.97761231144498
912500000,-13.173647183713035,41.6879597686437,-318.3120402313563,-6.6023563679929715,-109.03112586207078,-109.03112586207078,-6.847393170218586,-119.13072343468895,-119.13072343468895,-8.163112640513075,-55.24426498778621,-55.24426498778621
925000000,-13.093111981651692,37.105142384532,-322.894857615468,-7.599443073669048,-113.193361811554,-113.193361811554,-5.733751246517315,-122.62851433189401,-122.62851433189401,-7.392674147072251,-58.85311084569481,-58.85311084569481
937500000,-12.194652892401495,32.416640726543626,-327.5833592734564,-7.690378427487108,-123.04457499079646,-123.04457499079646,-5.018476117965649,-121.65026699049085,-121.65026699049085,-7.609813156486189,-61.950306755050924,-61.950306755050924
950000000,-12.043820815838284,15.454127269070694,-344.5458727309293,-6.705038417177231,-129.74501671485945,-129.74501671485945,-5.077149726725176,-119.04860224461103,-119.04860224461103,-7.885018848037452,-61.79314354723535,-61.79314354723535
962500000,-13.225371093543263,11.524874724345038,-348.475125275655,-5.703995084241718,-132.36905474153596,-132.36905474153596,-5.6949574109729175,-120.27909157522592,-120.27909157522592,-8.199484543485292,-59.37534999768634,-59.37534999768634
975000000,-11.499865028432538,10.100167001844618,-349.8998329981554,-4.909431440895068,-129.35722019021935,-129.35722019021935,-6.22949563780744,-127.51355787173969,-127.51355787173969,-9.901510066529687,-66.66881728140204,-66.66881728140204
987500000,-12.45060737175663,14.103764218631353,-345.89623578136866,-5.417938384244813,-126.3128881291225,-126.3128881291225,-5.6707797024372635,-135.30146691418528,-135.30146691418528,-10.198714271255655,-69.56965488055211,-69.56965488055211
1000000000,-12.696424466453797,10.535396441589342,-349.46460355841066,-6.205181299932847,-128.05150406161425,-128.05150406161425,-5.0502587694177965,-140.4552345679113,-140.4552345679113,-10.486628687630112,-72.95348494392395,-72.95348494392395
1012500000,-11.664389993439501,1.2469294580107435,-358.75307054198925,-6.608059739630416,-135.3215857227632,-135.3215857227632,-4.303543571603848,-140.9976738124732,-140.9976738124732,-10.742663694285891,-73.78091157922277,-73.78091157922277
1025000000,-12.824071784594082,-6.758108899674416,-366.7581088996744,-6.189203105283037,-143.88774090401802,-143.88774090401802,-3.9125174920339467,-139.70858660996606,-139.70858660996606,-10.70524702187248,-76.53810181437586,-76.53810181437586
1037500000,-11.491762016976065,-10.184918770915734,-370.1849187709157,-5.353136432914516,-147.61652267858653,-147.61652267858653,-4.352986556000252,-138.7880679315861,-138.7880679315861,-10.582103877996193,-70.32631915160013,-70.32631915160013
1050000000,-11.196264788307671,-9.096377079207576,-369.09637707920757,-4.676689495872498,-147.26659449909565,-147.26659449909565,-4.784752258479222,-142.3252321715618,-142.3252321715618,-13.46261212191302,-48.32332922923581,-48.32332922923581
1062500000,-12.028487303897496,-13.84257260281009,-373.8425726028101,-4.074712848783467,-145.38058314432575,-145.38058314432575,-4.82652632590742,-148.3089905630179,-148.3089905630179,-12.97509465451836,-83.34142232348228,-83.34142232348228
1075000000,-11.881335684423577,-18.963371984768077,-378.96337198476806,-4.519776864300999,-144.504021604201,-144.504021604201,-4.442110713545586,-154.24055525241124,-154.24055525241124,-13.529283765038851,-89.22193272963077,-89.22193272963077
1087500000,-12.296982457155785,-21.128572185680973,-381.128572185681,-4.660943572211205,-150.31392606055255,-150.31392606055255,-3.9592436899241874,-157.9220416374002,-157.9220416374002,-14.73953891972183,-88.25546794869904,-88.25546794869904
1100000000,-12.787751361174944,-31.352059046426838,-391.35205904642686,-4.462023675389028,-155.18725927583822,-155.18725927583822,-3.611094616717672,-158.21595756032434,-158.21595756032434,-12.444582875322748,-99.51844672327186,-99.51844672327186
1112500000,-13.63351038810179,-31.774266380041674,-391.7742663800417,-4.178514437632807,-160.1294849387672,-160.1294849387672,-3.493627845566076,-159.64159748018406,-159.64159748018406,-12.04253013163594,-99.60450923624818,-99.60450923624818
1125000000,-13.889404323108234,-33.92035975672612,-393.9203597567261,-4.075266140137397,-162.8840020583139,-162.8840020583139,-3.7756292487731127,-165.56874643877467,-165.56874643877467,-14.790641162940625,-113.61149396986046,-113.61149396986046
1137500000,-13.794992570945938,-37.015744893071,-397.015744893071,-3.779505474724378,-166.2117988729469,-166.2117988729469,-3.7810843359441897,-166.6612280240685,-166.6612280240685,-15.575908475346242,-107.92001529107141,-107.92001529107141
1150000000,-14.73580925168752,-38.21982821911772,-398.21982821911774,-3.6914398343518484,-169.54767924157025,-169.54767924157025,-3.800801989640679,-168.30944403591178,-168.30944403591178,-14.060592033594846,-115.35322914967907,-115.35322914967907
1162500000,-15.719548932490074,-46.25752540496723,-406.2575254049672,-3.670302542447667,-172.17582545435616,-172.17582545435616,-3.8724113740620485,-171.60521223603138,-171.60521223603138,-15.165322133817877,-108.35981010788235,-108.35981010788235
1175000000,-15.82307914777572,-58.02495484258459,-418.0249548425846,-3.861148805709664,-175.56267926830958,-175.56267926830958,-4.111075302564067,-176.75830282290573,-176.75830282290573,-16.632332903037536,-124.25841817479463,-124.25841817479463
1187500000,-15.043265114950836,-66.29723969018077,-426.2972396901808,-4.012147633504639,-178.87712525103788,-178.87712525103788,-4.017636996483919,-179.94526217357043,-179.94526217357043,-13.894753237849597,-135.4894902927091,-135.4894902927091
1200000000,-15.166132771331078,-68.8619650354387,-428.8619650354387,-3.897884180817763,178.6205146254564,-181.3794853745436,-3.994177872270196,177.24444675299424,-182.75555324700576,-13.774519761094533,-129.29356325913312,-129.29356325913312
1212500000,-14.262862925603045,-73.16734661632057,-433.1673466163206,-3.887209214331078,175.47881606090777,-184.52118393909223,-3.9323343799135646,173.34290110726272,-186.65709889273728,-13.241497695354838,-117.30476114558303,-117.30476114558303
1225000000,-15.364008170311699,-78.58698482497586,-438.58698482497584,-4.0928004542667615,172.38785494204177,-187.61214505795823,-4.098591798911862,171.23433083479006,-188.76566916520994,-13.51868940715648,-127.5777127591663,-127.5777127591663
1237500000,-15.970650538764135,-84.74645439631081,-444.7464543963108,-4.090221120429133,170.2479206650067,-189.7520793349933,-4.231961181310279,169.85933764910067,-190.14066235089933,-14.024581872091286,-132.91724456742782,-132.91724456742782
1250000000,-15.065805564128148,-90.94598058488874,-450.94598058488873,-3.973373574942806,164.98686262420506,-195.01313737579494,-3.937110081447568,167.09482543476133,-192.90517456523867,-13.610645436442383,-122.75613761991335,-122.75613761991335
1262500000,-14.376065567633383,-100.75191958533757,-460.7519195853376,-3.883143436334164,164.9501624958588,-195.0498375041412,-4.36117241810747,166.09789694761767,-193.90210305238233,-13.453793265443126,-138.12850044826067,-138.12850044826067
1275000000,-14.508555874900214,-104.02255165342021,-464.02255165342024,-3.956812640169212,163.97893512066358,-196.02106487933642,-4.400890265054162,162.91961339109443,-197.08038660890557,-12.792434728340254,-127.66641310263732,-127.66641310263732
1287500000,-13.984115881452354,-105.07053524848449,-465.0705352484845,-4.514140391920058,161.2847786187485,-198.7152213812515,-4.691700301707872,158.492223258814,-201.507776741186,-12.217831447850644,-125.97849701721898,-125.97849701721898
1300000000,-13.963570735140003,-113.18291906725132,-473.1829190672513,-4.932439639012665,158.0235907248502,-201.9764092751498,-4.610220898338528,152.6589257297855,-207.3410742702145,-13.669681736720134,-120.17615191636905,-120.17615191636905
1312500000,-13.952787787371827,-115.49438709754644,-475.49438709754645,-4.769828988538332,154.89869933406123,-205.10130066593877,-3.9677243323315703,149.63121997412188,-210.36878002587812,-15.493703214406464,-122.6922088432265,-122.6922088432265
1325000000,-14.326992494547637,-120.84763018385334,-480.8476301838533,-4.526110125432626,150.63985707254542,-209.36014292745458,-3.817913403016987,149.70856544016692,-210.29143455983308,-12.720708594360469,-131.33183466433346,-131.33183466433346
1337500000,-13.001860927261573,-125.24131101778607,-485.2413110177861,-3.571898224332495,152.11934109974888,-207.88065890025112,-4.172225188163512,151.90148286461715,-208.09851713538285,-11.903181240998379,-137.38567669806682,-137.38567669806682
1350000000,-12.93425624870294,-116.12975666600084,-476.12975666600084,-3.6689305025129637,155.3397929956598,-204.6602070043402,-5.16830856790973,151.49725507503626,-208.50274492496374,-12.297263213668828,-122.48182814552219,-122.48182814552219
1362500000,-12.890062116194358,-118.65651777986756,-478.65651777986756,-4.637665375613472,152.51299651061885,-207.48700348938115,-5.631369227259567,144.67966430843296,-215.32033569156704,-12.969384538260782,-106.2227835998698,-106.2227835998698
1375000000,-13.488809008191563,-125.57959791512926,-485.5795979151293,-5.253236031793187,145.89990656986726,-214.10009343013274,-5.014904025844364,137.48356308576348,-222.51643691423652,-14.51609709612595,-129.67605834653327,-129.67605834653327
1387500000,-12.889966670606029,-139.96901648832682,-499.9690164883268,-4.468217060153002,137.8304005569728,-222.1695994430272,-4.3585959357451145,136.5705995757965,-223.4294004242035,-13.361721244230424,-135.777995516537,-135.777995516537
1400000000,-12.371216295844258,-139.99280697206774,-499.99280697206774,-3.404676337749162,134.03975288814783,-225.96024711185217,-3.8318685785020907,139.91299132887698,-220.08700867112302,-13.547394103997618,-127.92964667461507,-127.92964667461507
1412500000,-12.168533526718742,-145.3825035386025,-505.38250353860246,-3.428834737318714,136.823055773081,-223.176944226919,-4.358774741666284,142.67932082190222,-217.32067917809778,-11.36572538630591,-118.85754988416738,-118.85754988416738
1425000000,-13.460271413550636,-147.2991599499218,-507.2991599499218,-4.668163362822194,136.4276240516199,-223.5723759483801,-5.2397201319936135,137.30567070801635,-222.69432929198365,-12.27827241933473,-129.69925731741702,-129.69925731741702
1437500000,-13.200275714758058,-148.21223248380304,-508.21223248380306,-5.5660942798805335,131.51584849742923,-228.48415150257077,-5.453898579619746,127.58146980900892,-232.41853019099108,-13.266590933269908,-128.58524612210832,-128.58524612210832
1450000000,-12.689205088705046,-159.50121375382977,-519.5012137538298,-5.423679725238541,120.50228111600367,-239.49771888399633,-4.519998279405434,119.99510815697118,-240.00489184302882,-14.276139913225856,-128.25049115330518,-128.25049115330518
1462500000,-12.609967036011566,-158.22705661349062,-518.2270566134906,-4.563746739041829,115.68979284009224,-244.31020715990775,-3.5557675138712312,120.42888495441672,-239.57111504558327,-14.122620487379187,-124.9842957214488,-124.9842957214488
1475000000,-14.426503918746542,-157.47277639185972,-517.4727763918597,-4.142584014366844,120.99998147977271,-239.0000185202273,-3.610049266032998,122.87603920615157,-237.12396079384843,-12.200967198788282,-126.80109875691346,-126.80109875691346
1487500000,-15.01580978223566,-178.1425070821566,-538.1425070821566,-4.924550632327879,125.92472954541947,-234.07527045458053,-4.252349415381803,125.07076430104786,-234.92923569895214,-12.194793067557427,-140.3450788230598,-140.3450788230598
1500000000,-17.869625189044687,-179.7914671625383,-539.7914671625383,-6.174936220206767,125.02896835640244,-234.97103164359754,-5.377396219388647,117.87280234776318,-242.12719765223682,-14.193630373366172,-124.69487039764041,-124.69487039764041
