Frequency[Hz],S11/dB,S11/phase[deg],S11/unwrapped_phase[deg],S12/dB,S12/phase[deg],S12/unwrapped_phase[deg],S21/dB,S21/phase[deg],S21/unwrapped_phase[deg],S22/dB,S22/phase[deg], S22/unwrapped_phase[deg]
500000000,-11.586618573095402,44.77908926039014,44.77908926039014,-5.5472198441256735,-81.91066159751135,-81.91066159751135,-4.377955854687531,-76.61867572719139,-76.61867572719139,-4.392884073078983,76.09093209429727,76.09093209429727
512500000,-11.361031662722386,32.76323278437503,32.76323278437503,-5.184838845513462,-88.30953077284161,-88.30953077284161,-5.3285195046049925,-78.65690617709893,-78.65690617709893,-4.014375221399893,79.50600563294987,79.50600563294987
525000000,-13.623384074260919,55.95666289703691,55.95666289703691,-3.7844856610805366,-93.1160904209507,-93.1160904209507,-5.625386082885396,-84.96798858420172,-84.96798858420172,-2.2380398177031653,71.14734321163677,71.14734321163677
537500000,-11.463385965507785,32.225144351224,32.225144351224,-3.687649776501134,-86.45078261515856,-86.45078261515856,-5.664570312116237,-92.55626482320898,-92.55626482320898,-5.307152435449444,83.58544437609332,83.58544437609332
550000000,-11.304415418271565,23.457844399100964,23.457844399100964,-4.380993326820021,-86.46777075899257,-86.46777075899257,-5.079688284684756,-97.37875000933309,-97.37875000933309,-5.364724469667539,72.79029026337528,72.79029026337528
562500000,-13.080828294485244,18.860832021843837,18.860832021843837,-5.485835743908012,-88.07684070824804,-88.07684070824804,-4.432709237896791,-96.24277643750617,-96.24277643750617,-4.952468304058551,62.15215434994381,62.15215434994381
575000000,-14.043979598739726,11.769562446689802,11.769562446689802,-6.108723913646963,-97.07252418602795,-97.07252418602795,-4.955397767188898,-91.77298968464339,-91.77298968464339,-3.738493741721522,57.896114093444396,57.896114093444396
587500000,-12.914025337069237,2.870145124286065,2.870145124286065,-5.263668810183573,-105.67489274455122,-105.67489274455122,-6.09738458695237,-92.49195903545404,-92.49195903545404,-3.471092513100187,63.11128522201598,63.11128522201598
600000000,-14.560402921019037,-0.3400365880727549,-0.3400365880727549,-3.996465690074935,-106.74669360786821,-106.74669360786821,-6.6468936333948925,-96.4781300857238,-96.4781300857238,-4.568815044803684,60.008473557133364,60.008473557133364
612500000,-15.064840730163825,-11.533568874334588,-11.533568874334588,-3.2955885678822168,-102.53959894594459,-102.53959894594459,-6.426560610361123,-107.00005574088331,-107.00005574088331,-4.595158389573192,56.82095264737512,56.82095264737512
625000000,-15.210082511995795,-33.19169582861284,-33.19169582861284,-4.546140549053824,-102.10491547540697,-102.10491547540697,-5.301855433341487,-110.09017558187703,-110.09017558187703,-4.778701620961116,43.615528955126834,43.615528955126834
637500000,-15.97974279110539,-43.10909520897085,-43.10909520897085,-5.206965306278998,-110.49236987647039,-110.49236987647039,-4.683058921498255,-109.44950711601716,-109.44950711601716,-3.7617007664527535,40.47560983588606,40.47560983588606
650000000,-17.26518854737457,-34.954917493993044,-34.954917493993044,-5.75933061981609,-119.3319773754805,-119.3319773754805,-5.047818999453144,-111.48370331417046,-111.48370331417046,-4.58390029673912,37.94097312713239,37.94097312713239
662500000,-19.9335129134791,-40.65024465794998,-40.65024465794998,-5.453773273260701,-125.27603963770954,-125.27603963770954,-5.995978834678295,-117.287583130587,-117.287583130587,-4.801241709827507,34.802392338099686,34.802392338099686
675000000,-21.9838598325091,-63.741850119612394,-63.741850119612394,-5.446520274927274,-127.14571824847337,-127.14571824847337,-6.505032041987494,-122.08031594302582,-122.08031594302582,-4.754703620379465,25.604613583830517,25.604613583830517
687500000,-19.14410177170668,-96.1550140108175,-96.1550140108175,-5.879827048933832,-127.26296046749286,-127.26296046749286,-6.723076035736755,-127.4320023453713,-127.4320023453713,-4.351501716333582,17.845065480215343,17.845065480215343
700000000,-19.394734845378466,-97.24541889875411,-97.24541889875411,-7.330117703981988,-125.35732241836581,-125.35732241836581,-7.1604459021225795,-127.3448041633072,-127.3448041633072,-4.2178157603961255,11.428280981068694,11.428280981068694
712500000,-21.841984325783592,-107.32623119083956,-107.32623119083956,-8.399417202834098,-133.61371155327424,-133.61371155327424,-7.594306286033985,-126.47519147824747,-126.47519147824747,-4.176790541016658,6.484323420901724,6.484323420901724
725000000,-22.49357874793499,-137.56707097008757,-137.56707097008757,-8.772444389725738,-139.02180357968874,-139.02180357968874,-8.643066619892972,-122.53277254623977,-122.53277254623977,-4.773152553944545,-0.7638923812868409,-0.7638923812868409
737500000,-22.05217699900285,-146.62107085824135,-146.62107085824135,-8.471905313857087,-137.4386855593955,-137.4386855593955,-10.208039982359596,-122.60258759860668,-122.60258759860668,-3.9591692876674727,-3.2725962352312514,-3.2725962352312514
750000000,-21.172372126921672,-155.31009041198232,-155.31009041198232,-8.954820586334634,-131.30158328189643,-131.30158328189643,-10.554266696102514,-128.88641368059675,-128.88641368059675,-4.222743484990568,-6.919690098050004,-6.919690098050004
762500000,-21.60737381596348,-173.37696153095126,-173.37696153095126,-10.374724783092548,-126.94724417544089,-126.94724417544089,-10.22319088017322,-130.22318551946557,-130.22318551946557,-4.338129836436399,-12.940284459436123,-12.940284459436123
775000000,-21.334707635435937,149.40456275458084,-210.59543724541916,-12.026217779023028,-126.82352041373588,-126.82352041373588,-9.643264622760316,-123.28145062386452,-123.28145062386452,-4.728589833981992,-17.177911511760055,-17.177911511760055
787500000,0.9127142727159278,173.0730363271405,-186.9269636728595,-17.407341252816902,-68.8823527533676,-68.8823527533676,-22.08362714280922,122.9409766349039,-237.0590233650961,-15.01500072256772,-77.71339910887816,-77.71339910887816
800000000,-21.504985641304202,138.55406509359514,-221.44593490640486,-11.397512110594066,-127.58242816405074,-127.58242816405074,-10.589398559199665,-108.8605556147957,-108.8605556147957,-4.521435564237541,-31.913325960968816,-31.913325960968816
812500000,-19.88459304061186,110.7532302322279,-249.2467697677721,-10.220083300373162,-120.95438016677647,-120.95438016677647,-11.506233534591646,-108.53198901359461,-108.53198901359461,-4.173975941538099,-35.898451940445135,-35.898451940445135
825000000,-18.592067652536514,95.04944143909586,-264.95055856090414,-9.799038744883713,-110.7014454008518,-110.7014454008518,-10.859708792143339,-109.44368939154258,-109.44368939154258,-5.130297824562949,-34.93037147894153,-34.93037147894153
837500000,-15.716242154590281,89.6622510898648,-270.3377489101352,-10.358008064342206,-102.14863842624281,-102.14863842624281,-9.650709376049463,-113.73378891451061,-113.73378891451061,-5.608847583291851,-36.037523174441624,-36.037523174441624
850000000,-17.193454753481063,94.02777809248835,-265.97222190751165,-10.746079012407355,-103.40626791898534,-103.40626791898534,-8.228114152097103,-109.54314087446518,-109.54314087446518,-5.627338632694419,-45.96874842724359,-45.96874842724359
862500000,-15.641742468250436,94.21274102432169,-265.7872589756783,-10.48492597299983,-112.07600063752933,-112.07600063752933,-7.404166293339626,-104.92942662320806,-104.92942662320806,-6.1046798315418505,-47.44487254157875,-47.44487254157875
875000000,-16.97685532621628,57.18007248342509,-302.8199275165749,-8.911438427932374,-116.87598350166714,-116.87598350166714,-7.53204533403136,-100.11552313313149,-100.11552313313149,-5.331390089144572,-46.59658550593894,-46.59658550593894
887500000,-14.653048672037682,48.218179895786946,-311.78182010421307,-7.3267194828820426,-116.51239677985345,-116.51239677985345,-7.984853362044415,-103.35644641249814,-103.35644641249814,-5.813634251706988,-51.95516196401599,-51.95516196401599
900000000,-13.031653856990662,50.73945550223812,-309.2605444977619,-6.734941537750921,-110.73116905942997,-110.73116905942997,-7.84674177448151,-112.98591915900863,-112.98591915900863,-6.55173646038382,-49.57022021947372,-49.57022021947372
912500000,-12.868422004888824,43.56535823580477,-316.43464176419525,-6.622242346764356,-109.01818732729755,-109.01818732729755,-6.873807966702163,-118.60224117723322,-118.60224117723322,-8.236829640673296,-56.8048000409799,-56.8048000409799
925000000,-13.143659183248989,41.8687604574706,-318.1312395425294,-7.475725369484128,-113.6572083376531,-113.6572083376531,-5.65663809571595,-122.09116963849156,-122.09116963849156,-7.6943184370593976,-60.29769399573732,-60.29769399573732
937500000,-11.818590827674718,36.95804925395618,-323.0419507460438,-7.529487771853995,-122.30733550165218,-122.30733550165218,-5.017650370268891,-121.55834107834966,-121.55834107834966,-7.91545797164744,-64.77050569879479,-64.77050569879479
950000000,-12.453089179404294,17.98368800454705,-342.01631199545295,-6.741841969816981,-129.48605463176403,-129.48605463176403,-5.013994118744422,-119.25456423792185,-119.25456423792185,-7.450146147267073,-61.56702620025298,-61.56702620025298
962500000,-12.792485128771515,18.086884907744775,-341.9131150922552,-5.739269316702471,-131.6466755987773,-131.6466755987773,-5.601268070051458,-119.8912225705439,-119.8912225705439,-8.267852553588789,-61.65351844109521,-61.65351844109521
975000000,-11.289018016034225,12.12791412992509,-347.8720858700749,-4.872909424842786,-128.4577641002218,-128.4577641002218,-6.1574992645884175,-127.275097523765,-127.275097523765,-9.276020973158888,-65.7557248261422,-65.7557248261422
987500000,-11.979436776377458,11.427420735714776,-348.5725792642852,-5.375962619240623,-127.15468901828962,-127.15468901828962,-5.821986340419492,-135.73201393134755,-135.73201393134755,-10.053987945305362,-66.4854686201165,-66.4854686201165
1000000000,-12.196555138814166,2.087852395508897,-357.9121476044911,-6.25794809677682,-127.09675289985883,-127.09675289985883,-5.159170001682477,-140.55565998735906,-140.55565998735906,-11.015156215005934,-78.57645150143341,-78.57645150143341
1012500000,-11.806086121849741,0.8214441810683031,-359.17855581893167,-6.620799043942787,-135.2541546922118,-135.2541546922118,-4.375079476381992,-141.08432546518617,-141.08432546518617,-10.440105814016228,-73.80435145979095,-73.80435145979095
1025000000,-12.898969556841244,-3.905501710361265,-363.90550171036125,-6.102214229089167,-144.27001990068754,-144.27001990068754,-3.896076950811374,-140.05427270103962,-140.05427270103962,-10.413439305933473,-74.02842792294108,-74.02842792294108
1037500000,-12.117430265439443,-6.229898322287072,-366.22989832228706,-5.125403534830747,-147.38641327808654,-147.38641327808654,-4.231048283234747,-139.03909307884928,-139.03909307884928,-11.303841738528071,-68.08676184116226,-68.08676184116226
1050000000,-11.884372014613017,-9.955760746774255,-369.9557607467743,-4.819319488118052,-146.55078267267828,-146.55078267267828,-4.795047065723022,-139.62619273597673,-139.62619273597673,-11.074396482006627,-47.002248392960176,-47.002248392960176
1062500000,-12.347776526007191,-16.154859618014065,-376.1548596180141,-4.09259054018823,-144.8517931340057,-144.8517931340057,-4.81424685506864,-148.1634167440992,-148.1634167440992,-13.110374960142167,-84.47017915174536,-84.47017915174536
1075000000,-11.99057452619844,-20.313864982928376,-380.31386498292835,-4.342309386295019,-144.8343250105992,-144.8343250105992,-4.381089465734859,-154.15631353487032,-154.15631353487032,-13.95621604242395,-92.16094482792839,-92.16094482792839
1087500000,-12.034566841670252,-21.595341684765376,-381.5953416847654,-4.673738930315976,-150.01440209589043,-150.01440209589043,-3.9331447594903346,-158.03720173446436,-158.03720173446436,-13.778511072650545,-96.31729970556731,-96.31729970556731
1100000000,-12.91698924567118,-27.820839982845946,-387.82083998284594,-4.303896677939326,-155.8280077056333,-155.8280077056333,-3.5419354527168085,-159.08020389843784,-159.08020389843784,-12.129157142754174,-99.99090071033699,-99.99090071033699
1112500000,-12.72319799344153,-33.19188571557905,-393.191885715579,-3.9711019019617106,-160.44599929766653,-160.44599929766653,-3.605450672608361,-159.41855673673822,-159.41855673673822,-13.061119425686371,-108.58081776331373,-108.58081776331373
1125000000,-13.339026268331935,-35.31812362364658,-395.31812362364656,-4.183501936114747,-162.62852789804958,-162.62852789804958,-3.693824665536647,-164.92233462768442,-164.92233462768442,-13.08856916472044,-113.88561482810915,-113.88561482810915
1137500000,-13.529709181439586,-39.84533539343364,-399.84533539343363,-3.871957172109939,-166.1129202025605,-166.1129202025605,-3.7087952341721238,-166.64977398747845,-166.64977398747845,-14.618435249172412,-114.60504034111729,-114.60504034111729
1150000000,-14.554849553120059,-38.92661007520473,-398.92661007520474,-3.895440952539155,-169.4211771238624,-169.4211771238624,-3.77867147531141,-168.12577193244252,-168.12577193244252,-13.972087948552216,-111.70146796497845,-111.70146796497845
1162500000,-16.240886539795238,-53.446093686773935,-413.4460936867739,-3.769919211036367,-172.0730755034656,-172.0730755034656,-3.9646997229006358,-171.8449286875686,-171.8449286875686,-13.722954292001862,-106.23089117830345,-106.23089117830345
1175000000,-15.53521007023824,-60.157294019924144,-420.15729401992417,-3.7643397002810564,-175.80426429994534,-175.80426429994534,-4.109471838366321,-176.52047684448337,-176.52047684448337,-14.163002306052299,-128.77517584210193,-128.77517584210193
1187500000,-14.2512907286936,-68.1864223526223,-428.1864223526223,-4.008661852708202,-179.5899787589864,-179.5899787589864,-4.028788260157134,-179.66119316699042,-179.66119316699042,-15.681654115465712,-131.68339797102192,-131.68339797102192
1200000000,-14.516716423557167,-67.90876444299698,-427.908764442997,-3.942211306914087,178.45162841786856,-181.54837158213144,-3.878672139591672,177.08638908219328,-182.91361091780672,-12.809232433672424,-123.7223698742942,-123.7223698742942
1212500000,-15.886888801338749,-71.08080608676886,-431.08080608676886,-3.868102219681565,175.5898937015131,-184.4101062984869,-3.890632010425395,173.9603316095273,-186.0396683904727,-12.398725084316302,-119.53110506826853,-119.53110506826853
1225000000,-15.170017803839375,-75.6888293511719,-435.6888293511719,-4.0755465784798135,171.6414854385607,-188.3585145614393,-4.060294889640668,171.7527959023961,-188.2472040976039,-13.46409910578129,-123.98444464823312,-123.98444464823312
1237500000,-16.18005375722889,-92.37206759557644,-452.3720675955764,-4.183855536184456,170.3621646593151,-189.6378353406849,-4.278424060385322,170.00021715446525,-189.99978284553475,-13.840043329060087,-135.85352649041295,-135.85352649041295
1250000000,-15.413527926033296,-93.0658664753618,-453.0658664753618,-4.1154404425783255,166.16007733289425,-193.83992266710575,-4.00306115759942,167.07468724718484,-192.92531275281516,-13.296358767861683,-124.90448904362486,-124.90448904362486
1262500000,-14.788459282899801,-103.10126942859463,-463.1012694285946,-4.0787684529425245,165.1334804376535,-194.8665195623465,-4.298912963240103,165.95623890204058,-194.04376109795942,-13.553507581094856,-137.12987247765238,-137.12987247765238
1275000000,-14.21439507710833,-99.51439385206046,-459.5143938520605,-3.9395011540857756,163.83980594965976,-196.16019405034024,-4.453694800109783,163.1070964297272,-196.8929035702728,-13.459786285628276,-134.72309582275017,-134.72309582275017
1287500000,-13.581567386833726,-103.64509968886499,-463.645099688865,-4.653470243083204,161.6120637122066,-198.3879362877934,-4.787345308903836,158.5161230139766,-201.4838769860234,-12.21577212185915,-128.18743336798792,-128.18743336798792
1300000000,-14.304866957877088,-112.22311565469737,-472.2231156546974,-4.957513148551633,158.48670595382248,-201.51329404617752,-4.643756817569464,153.13250868841428,-206.86749131158572,-12.919188391207264,-121.8089481706138,-121.8089481706138
1312500000,-13.667639312293016,-113.27562924726571,-473.2756292472657,-4.817641382414715,155.53135779677973,-204.46864220322027,-4.078764177664523,149.67146431144147,-210.32853568855853,-15.11043817329752,-120.27649579861009,-120.27649579861009
1325000000,-13.747443275088136,-120.05051199719541,-480.05051199719543,-4.3452885274450335,149.56169843055386,-210.43830156944614,-3.9069691687936507,149.21837347054827,-210.78162652945173,-13.907355444938228,-127.98379603483852,-127.98379603483852
1337500000,-12.168042975226106,-124.654521583089,-484.654521583089,-3.6327852660088182,151.19642659713605,-208.80357340286395,-4.370251749187494,152.91069727676307,-207.08930272323693,-11.878088435822471,-129.759391661908,-129.759391661908
1350000000,-12.895960310843002,-112.48694628710253,-472.4869462871025,-3.6720375342182496,155.0793594549291,-204.9206405450709,-5.310267348806921,151.32235261354404,-208.67764738645596,-11.79995682100714,-121.68051938245436,-121.68051938245436
1362500000,-13.738610786631895,-122.33904630275129,-482.3390463027513,-4.634644989154342,153.65571291393522,-206.34428708606478,-5.505327180508072,144.82744840957506,-215.17255159042494,-12.270888980170618,-115.9743342371152,-115.9743342371152
1375000000,-13.781137782837957,-131.26091977432355,-491.26091977432355,-5.167844629410028,145.3828155981929,-214.6171844018071,-5.032176905939475,137.53348886027663,-222.46651113972337,-14.257047682783092,-130.75066785494627,-130.75066785494627
1387500000,-13.205271884865583,-138.9383005279074,-498.93830052790736,-4.50810332604354,137.71904507314818,-222.28095492685182,-4.35292828760277,136.75477162308624,-223.24522837691376,-13.510841229383967,-129.7130947477351,-129.7130947477351
1400000000,-12.010840660523556,-142.95207537516853,-502.95207537516853,-3.548251070510322,134.4262266522095,-225.5737733477905,-3.845408727332014,140.6007645212661,-219.3992354787339,-12.64925206108543,-123.35531211390605,-123.35531211390605
1412500000,-12.651313444027533,-139.19146036981155,-499.1914603698116,-3.3983505193681722,136.3600219959973,-223.6399780040027,-4.383247697886742,141.6392597293997,-218.3607402706003,-12.068443984219277,-126.96365467659757,-126.96365467659757
1425000000,-13.845392148896746,-148.64204006987518,-508.6420400698752,-4.517849606399511,136.72275388872498,-223.27724611127502,-5.2545321675737675,136.54729148237988,-223.45270851762012,-12.361917398997086,-132.84028124198488,-132.84028124198488
1437500000,-14.478576156642992,-150.4873310180159,-510.4873310180159,-5.351414475321034,130.67044172767316,-229.32955827232684,-5.382506079510297,126.60338615795709,-233.3966138420429,-13.684963852767162,-124.67006553086728,-124.67006553086728
1450000000,-12.575402738975075,-156.38983273431626,-516.3898327343163,-5.580482019808742,119.88536017994502,-240.11463982005498,-4.649833919169966,120.04127982422867,-239.95872017577133,-15.379810709145577,-126.94967232840025,-126.94967232840025
1462500000,-13.345033433677514,-153.8303561589034,-513.8303561589034,-4.6167284240553155,116.8270080563769,-243.17299194362312,-3.594305944314313,119.55730590495287,-240.44269409504713,-14.03666564397368,-132.24078082536283,-132.24078082536283
1475000000,-13.144897217070303,-155.04888361982822,-515.0488836198282,-4.168260818466924,120.78228818326488,-239.21771181673512,-3.5624853192794523,123.11915506144246,-236.88084493855754,-12.347719178301952,-131.1771206257251,-131.1771206257251
1487500000,-15.644014003515899,-168.64373850082148,-528.6437385008214,-4.9505487053039055,124.98087947025259,-235.0191205297474,-4.317065534782739,124.50560701807527,-235.49439298192473,-12.240104814435394,-138.30031110182244,-138.30031110182244
1500000000,-15.966193672613153,179.44375249219857,-540.5562475078015,-6.0653079336631945,124.30094743007183,-235.69905256992817,-5.197725215098545,118.16305161991085,-241.83694838008915,-14.373660291862114,-117.37212204376056,-117.37212204376056
