Frequency[Hz],S11/dB,S11/phase[deg],S11/unwrapped_phase[deg],S12/dB,S12/phase[deg],S12/unwrapped_phase[deg],S21/dB,S21/phase[deg],S21/unwrapped_phase[deg],S22/dB,S22/phase[deg], S22/unwrapped_phase[deg]
500000000,-11.894818452794645,41.850044103774785,41.850044103774785,-5.617749776152814,-81.28190019720587,-81.28190019720587,-4.44611313065056,-76.42353653923138,-76.42353653923138,-4.967885072111276,76.37397126990908,76.37397126990908
512500000,-10.980504400029806,31.789389483494496,31.789389483494496,-5.18370427498153,-89.19300240767124,-89.19300240767124,-5.283969980472003,-79.73217098529952,-79.73217098529952,-3.935232879657632,81.81864609008736,81.81864609008736
525000000,-12.605227284350924,46.07907873233752,46.07907873233752,-4.031565565711672,-94.98335511750416,-94.98335511750416,-5.64563349110497,-84.8480195261735,-84.8480195261735,-3.1343510394407907,74.33345626559549,74.33345626559549
537500000,-11.47991235404017,29.187820338496813,29.187820338496813,-3.6793042703082253,-87.13096104743661,-87.13096104743661,-5.77002267942908,-92.58573832281884,-92.58573832281884,-5.357951480689071,83.50294847368575,83.50294847368575
550000000,-11.266682573106635,26.26724097762004,26.26724097762004,-4.244620065443977,-85.22458407799088,-85.22458407799088,-4.962821380410206,-97.63761404364503,-97.63761404364503,-5.586924778023954,73.99306139386124,73.99306139386124
562500000,-12.88070457053162,17.57938074393266,17.57938074393266,-5.556799133171857,-87.62138630630096,-87.62138630630096,-4.503823864745492,-96.60342092846923,-96.60342092846923,-5.048190650157331,61.52262730769339,61.52262730769339
575000000,-14.007287139493961,8.765352137130018,8.765352137130018,-6.158898494375097,-97.34629354374864,-97.34629354374864,-4.782669117448988,-91.862476308695,-91.862476308695,-3.8456189365377074,60.79773335313786,60.79773335313786
587500000,-12.72646417460209,4.514906630649336,4.514906630649336,-5.2959973333745545,-106.11353283806322,-106.11353283806322,-5.98792648402425,-92.88083066896557,-92.88083066896557,-3.587313696413195,63.93874108855773,63.93874108855773
600000000,-14.844796468239721,-3.9026659414162417,-3.9026659414162417,-4.104195763857177,-107.03775751603911,-107.03775751603911,-6.62808590821623,-97.21735277981243,-97.21735277981243,-4.456577006179518,60.78012173530762,60.78012173530762
612500000,-15.03120564461145,-13.133229452647756,-13.133229452647756,-3.3719183055202286,-101.98709923016405,-101.98709923016405,-6.489290341389454,-106.64339928491465,-106.64339928491465,-4.5640682987479035,55.370672585127075,55.370672585127075
625000000,-13.990681033985906,-34.43358971761774,-34.43358971761774,-4.5299797576941145,-101.42341017179038,-101.42341017179038,-5.2799804469102085,-108.86023211409699,-108.86023211409699,-4.8195807981776015,42.01007857867543,42.01007857867543
637500000,-15.789771461172485,-42.758624256941694,-42.758624256941694,-5.193112263456735,-110.28375283823785,-110.28375283823785,-4.662911884033903,-109.04143387288501,-109.04143387288501,-3.626891377754649,40.92918199915196,40.92918199915196
650000000,-18.15682252120825,-37.98771858041107,-37.98771858041107,-5.771378184912217,-120.06866846398987,-120.06866846398987,-5.045574917681224,-111.02538268474086,-111.02538268474086,-4.179898954193278,36.98908402069779,36.98908402069779
662500000,-19.5360943612637,-36.60532579359236,-36.60532579359236,-5.472025538417952,-124.92798420617845,-124.92798420617845,-5.914098088679154,-117.55585785445243,-117.55585785445243,-5.010375883316268,35.33282488435927,35.33282488435927
675000000,-23.260015190168268,-55.26450313446649,-55.26450313446649,-5.474936071471061,-127.18198799216847,-127.18198799216847,-6.372745942423078,-122.16647531440196,-122.16647531440196,-4.485097041303582,20.66541124179662,20.66541124179662
687500000,-19.884759487000288,-93.64050130641765,-93.64050130641765,-6.0230291352362855,-126.137875677458,-126.137875677458,-6.7716155709941255,-126.41988417746242,-126.41988417746242,-4.442922962714243,16.70627586597699,16.70627586597699
700000000,-19.05422965243519,-96.26219247147681,-96.26219247147681,-7.469972822926763,-126.38608437545594,-126.38608437545594,-7.176801158809955,-126.83211742748682,-126.83211742748682,-4.370330977304029,12.326577384579762,12.326577384579762
712500000,-20.90988346611811,-109.86984973920516,-109.86984973920516,-8.463045214993738,-133.74019877790107,-133.74019877790107,-7.891365042006859,-126.96430825921536,-126.96430825921536,-4.222824207246371,7.319788352905494,7.319788352905494
725000000,-21.537234927269402,-145.7550757401242,-145.7550757401242,-8.853408393536437,-138.9985417303358,-138.9985417303358,-8.727889952204528,-123.20998124405887,-123.20998124405887,-4.450391131719197,-1.553471137508374,-1.553471137508374
737500000,-21.92125868545592,-141.9993579978244,-141.9993579978244,-8.459178867087289,-137.52147558203393,-137.52147558203393,-10.33373852987771,-122.6427269442699,-122.6427269442699,-4.158178411589343,-4.306388300895744,-4.306388300895744
750000000,-20.221305545059703,-157.45025938640921,-157.45025938640921,-9.122499978486642,-131.16148720711215,-131.16148720711215,-10.57788438959851,-128.74157464318233,-128.74157464318233,-3.730988581959754,-8.019279145781724,-8.019279145781724
762500000,-22.478389977410302,178.01458155797167,-181.98541844202833,-10.670757577263439,-126.47951889520303,-126.47951889520303,-10.080920418552479,-129.97564073074395,-129.97564073074395,-4.551346073026038,-15.072622886502446,-15.072622886502446
775000000,-21.131894798064373,164.28957233057696,-195.71042766942304,-12.211704753175745,-128.02120385644167,-128.02120385644167,-9.738797683229048,-123.38214037169988,-123.38214037169988,-4.7838850157572645,-20.38316159930323,-20.38316159930323
787500000,-6.431313295297365,-154.44590594510473,-154.44590594510473,-19.375795894364465,-81.39583752911153,-81.39583752911153,-5.268223625465498,136.86547130743435,-223.13452869256565,7.695491474665146,110.89572463845012,110.89572463845012
800000000,-22.046668130485372,136.540116797969,-223.459883202031,-11.535214125222971,-128.34057738151287,-128.34057738151287,-10.655594854940269,-108.38080368785545,-108.38080368785545,-4.43934045828772,-35.34604874579925,-35.34604874579925
812500000,-18.710765366631257,112.78686041937803,-247.21313958062197,-10.067636921755012,-119.5261727174083,-119.5261727174083,-11.367812355530404,-107.4419587766399,-107.4419587766399,-4.245573856767847,-34.122477793963554,-34.122477793963554
825000000,-19.382315987139183,103.7345409414898,-256.2654590585102,-10.052363106778714,-110.16556937770159,-110.16556937770159,-10.954599670948058,-109.49292221570686,-109.49292221570686,-5.247540128609181,-33.691269218828346,-33.691269218828346
837500000,-17.274535612359358,95.10510628412526,-264.89489371587473,-10.202811658019733,-103.12889065003786,-103.12889065003786,-9.561740989475023,-113.63131983359979,-113.63131983359979,-5.917900856160249,-33.56492394896501,-33.56492394896501
850000000,-16.489381443353757,94.75214927911682,-265.2478507208832,-10.747445554322233,-105.26343998188642,-105.26343998188642,-8.305264676044604,-109.8910263334595,-109.8910263334595,-5.52807144533087,-41.85247717090098,-41.85247717090098
862500000,-15.230881215186741,88.24600892169082,-271.7539910783092,-10.37144595566508,-112.47650495577727,-112.47650495577727,-7.251253038223746,-105.38199672008892,-105.38199672008892,-6.036448626549155,-48.80835254675879,-48.80835254675879
875000000,-15.182100984903503,60.38953233171256,-299.61046766828747,-9.118056231988819,-116.16267631524278,-116.16267631524278,-7.468194511159155,-100.7823812763279,-100.7823812763279,-5.5925580251206854,-48.34927989261035,-48.34927989261035
887500000,-15.276822501758147,46.80665155573418,-313.19334844426584,-7.419929627138597,-117.46375902916391,-117.46375902916391,-7.853219255046651,-103.32673890321342,-103.32673890321342,-5.63687118615414,-51.16315019281197,-51.16315019281197
900000000,-12.826283674142697,46.98264543088556,-313.01735456911445,-6.84600550660563,-111.1868425594009,-111.1868425594009,-7.916333421899746,-112.86352363804464,-112.86352363804464,-6.3677821287838565,-48.70024551887018,-48.70024551887018
912500000,-12.904840795579016,38.80042971573723,-321.1995702842628,-6.825067386539732,-109.335777771008,-109.335777771008,-6.8174966896825895,-119.48656293421502,-119.48656293421502,-8.132356096455476,-56.31174867830104,-56.31174867830104
925000000,-13.284381464131275,38.0819982359474,-321.9180017640526,-7.574071866181838,-113.19699751744926,-113.19699751744926,-5.764732764306398,-122.55324174250228,-122.55324174250228,-7.547966185418023,-59.09261811730669,-59.09261811730669
937500000,-12.541433498637504,37.39323500499888,-322.60676499500113,-7.684386218817323,-122.52090211176053,-122.52090211176053,-4.971743283837819,-121.72004327089167,-121.72004327089167,-7.785316529339836,-65.48248109557659,-65.48248109557659
950000000,-12.769137810875302,17.67114657293388,-342.3288534270661,-6.693435536375385,-130.29403326942898,-130.29403326942898,-5.018833401050412,-119.3106846924922,-119.3106846924922,-7.679473815085761,-57.62855073653265,-57.62855073653265
962500000,-12.30615415287605,18.279965635492786,-341.7200343645072,-5.642888448796066,-130.48344596799245,-130.48344596799245,-5.537138590638341,-120.44472827822966,-120.44472827822966,-9.296105351686128,-63.52170138225945,-63.52170138225945
975000000,-10.87514562344478,8.971984533072265,-351.02801546692774,-4.90754712221402,-130.02198135275324,-130.02198135275324,-6.2438514253297175,-127.19473683764625,-127.19473683764625,-10.17305232657443,-67.79190773849935,-67.79190773849935
987500000,-12.646452160306751,7.48170155595846,-352.51829844404153,-5.451677539007997,-127.14477066026424,-127.14477066026424,-5.863677993440185,-135.94302547982804,-135.94302547982804,-10.516303931416783,-66.586230924013,-66.586230924013
1000000000,-12.334014762276881,6.094593632302774,-353.90540636769725,-6.3868069966165875,-128.10201518228018,-128.10201518228018,-5.1105414961499935,-141.275620792922,-141.275620792922,-10.88666915900696,-74.84401533605416,-74.84401533605416
1012500000,-11.153035659951227,-1.182570205364187,-361.1825702053642,-6.647194976190518,-136.10009863747706,-136.10009863747706,-4.346425396846073,-141.5254119015712,-141.5254119015712,-10.198065909350216,-74.68664856909379,-74.68664856909379
1025000000,-12.803188722740446,-10.943261383878042,-370.94326138387805,-6.3594883047288775,-143.68842679812968,-143.68842679812968,-3.9716135415113527,-138.93685267428026,-138.93685267428026,-9.92054259755751,-76.34949866986203,-76.34949866986203
1037500000,-11.704769753402147,-8.182924342802515,-368.1829243428025,-5.0771092724133435,-147.72848839371787,-147.72848839371787,-4.3153292665171,-139.09682519096268,-139.09682519096268,-11.17453926406639,-66.97762116186043,-66.97762116186043
1050000000,-9.882042549360651,-2.7176315414531835,-362.71763154145316,-4.110655545021984,-148.6720688436807,-148.6720688436807,-4.850911511907309,-144.1960398850232,-144.1960398850232,-31.615926846478047,-122.264961176296,-122.264961176296
1062500000,-12.30560795955733,-13.25089038775824,-373.25089038775826,-4.030845834491678,-144.94225140478392,-144.94225140478392,-4.818224843026083,-148.44363105404565,-148.44363105404565,-13.415040458818837,-81.6203221879063,-81.6203221879063
1075000000,-11.986299544774111,-18.249958796906082,-378.24995879690607,-4.302051399105008,-144.35781512153713,-144.35781512153713,-4.447943612282825,-154.03051046041773,-154.03051046041773,-12.740370656242826,-85.86862257861578,-85.86862257861578
1087500000,-12.338384348031779,-23.441919250210205,-383.4419192502102,-4.768968875306487,-150.67736674968924,-150.67736674968924,-3.8693458100688485,-157.7589346770206,-157.7589346770206,-13.942427863971387,-89.54527426393334,-89.54527426393334
1100000000,-11.921439036487387,-25.499964678592427,-385.49996467859245,-4.430797426224714,-155.92772836592258,-155.92772836592258,-3.6645634707537367,-159.33850137152146,-159.33850137152146,-13.430648330434853,-94.27622387981381,-94.27622387981381
1112500000,-13.698726278746767,-29.374720626830754,-389.37472062683077,-4.101808553461611,-160.62318335830244,-160.62318335830244,-3.47831052363465,-159.94565050165784,-159.94565050165784,-12.590808571872676,-102.86828866241792,-102.86828866241792
1125000000,-13.156573784707144,-34.885047182080896,-394.8850471820809,-4.031619237870969,-162.77346558019946,-162.77346558019946,-3.7429948025396937,-164.8972651559651,-164.8972651559651,-14.221619984783263,-107.28528165999752,-107.28528165999752
1137500000,-13.81655584266191,-36.35848610373599,-396.35848610373597,-3.865880714725401,-166.44127930870886,-166.44127930870886,-3.6882353949561026,-166.83687238724707,-166.83687238724707,-14.092240736710844,-111.9822043390104,-111.9822043390104
1150000000,-14.526537077803418,-37.160084451000074,-397.1600844510001,-3.791572468782596,-169.57242863470555,-169.57242863470555,-3.886703261346019,-168.81795721030227,-168.81795721030227,-13.825480701458513,-111.10235696861544,-111.10235696861544
1162500000,-16.81195138900897,-47.74201473700494,-407.7420147370049,-3.795956478165792,-173.45305051020497,-173.45305051020497,-3.872700891349921,-171.26699352694845,-171.26699352694845,-15.675360138624512,-103.4092741002494,-103.4092741002494
1175000000,-15.317048752740408,-62.832985858218635,-422.83298585821865,-3.8581581304203567,-176.07263147710788,-176.07263147710788,-4.198798756673249,-177.0334782241902,-177.0334782241902,-15.430843562098904,-132.1514861005149,-132.1514861005149
1187500000,-14.490808107548778,-76.68801688477473,-436.6880168847747,-4.02273066336229,-179.5977132067554,-179.5977132067554,-4.030963615312497,179.63734403694662,-180.36265596305338,-14.274812666117953,-132.16241414070936,-132.16241414070936
1200000000,-14.574766048195656,-71.82990727337031,-431.8299072733703,-3.9263730443091323,178.59269545786574,-181.40730454213426,-3.94926768379974,176.91900042360328,-183.08099957639672,-14.21475244586656,-125.20371888460406,-125.20371888460406
1212500000,-14.788695970264712,-73.17563433746106,-433.1756343374611,-3.8279526728888698,175.037439543582,-184.962560456418,-3.920463215514118,173.54607505988298,-186.45392494011702,-12.995083522919366,-113.31545276666961,-113.31545276666961
1225000000,-15.23707101831678,-75.13098779067099,-435.130987790671,-4.008243066764876,171.94268415837894,-188.05731584162106,-4.007292354394777,171.6779426416266,-188.3220573583734,-14.651032589123314,-124.77624756830214,-124.77624756830214
1237500000,-15.571809921273143,-87.64495323339922,-447.64495323339924,-4.163060871048241,169.30425904050995,-190.69574095949005,-4.242026076847892,169.670679647727,-190.329320352273,-13.798973690170026,-128.05521714435403,-128.05521714435403
1250000000,-14.990680123806762,-93.08043112768902,-453.08043112768905,-4.03735113720438,165.15018613113293,-194.84981386886707,-3.9492791455515164,166.82382617072167,-193.17617382927833,-13.691558721914102,-122.37563053387012,-122.37563053387012
1262500000,-14.787413709504783,-101.09523287510038,-461.09523287510035,-3.969454077375334,165.01499959710299,-194.98500040289701,-4.358364247125379,165.8501753056499,-194.1498246943501,-13.520426955558678,-136.22978047516952,-136.22978047516952
1275000000,-13.976708459418788,-102.90686913883846,-462.9068691388385,-3.8710695477603436,163.24955656840345,-196.75044343159655,-4.419096081339876,162.8281128577038,-197.1718871422962,-13.549691676677915,-130.03303545496922,-130.03303545496922
1287500000,-13.660356364265937,-100.03543382606854,-460.0354338260685,-4.634375423220518,161.13387883300524,-198.86612116699476,-4.799116677772243,157.02121158409625,-202.97878841590375,-11.618983216476453,-126.55839090779224,-126.55839090779224
1300000000,-14.300835897155387,-107.78673882503509,-467.78673882503506,-5.026122265330305,158.4094658810817,-201.5905341189183,-4.682926573329501,152.2655052677418,-207.7344947322582,-13.474633359180606,-120.91807358720055,-120.91807358720055
1312500000,-13.774587480696788,-115.06565687060503,-475.06565687060504,-4.84560079065957,155.76532374010827,-204.23467625989173,-3.9866414890192576,149.59097510277257,-210.40902489722743,-14.45532878673735,-127.3364317787837,-127.3364317787837
1325000000,-13.532504649069795,-118.31681236402585,-478.31681236402585,-4.406783790097355,148.8910320765459,-211.1089679234541,-3.8877721488342414,149.5189699520075,-210.4810300479925,-14.0199675240828,-124.93958933378406,-124.93958933378406
1337500000,-12.308273807597548,-122.30445918638407,-482.30445918638407,-3.8289574143417364,152.02545912695194,-207.97454087304806,-4.3245744077048665,152.53571787711476,-207.46428212288524,-11.606465394400507,-130.00429457705556,-130.00429457705556
1350000000,-13.022868484470935,-120.94299566554776,-480.94299566554776,-3.636765242292009,155.3033466880494,-204.6966533119506,-5.160366027617538,151.87853178792432,-208.12146821207568,-11.66583405783637,-122.90826885278805,-122.90826885278805
1362500000,-13.703679123428296,-119.64661524329159,-479.6466152432916,-4.483192573641605,154.19887702297922,-205.80112297702078,-5.5772254512855834,144.90356096366804,-215.09643903633196,-12.379820287491048,-116.45766527546067,-116.45766527546067
1375000000,-14.227447623124474,-128.97263771325402,-488.972637713254,-5.207919508604205,146.90226503146764,-213.09773496853236,-5.0405907260650835,136.57134791571644,-223.42865208428356,-12.858446256197894,-136.95396790609726,-136.95396790609726
1387500000,-13.132387506593492,-139.12810473583232,-499.1281047358323,-4.386130908559682,137.75865857810857,-222.24134142189143,-4.307095721442898,136.79503138304096,-223.20496861695904,-13.365826056447395,-132.8836114448758,-132.8836114448758
1400000000,-12.185433534253843,-139.66661948359598,-499.666619483596,-3.533957825204341,135.18684465090539,-224.81315534909461,-3.836923444702313,140.0415850033056,-219.9584149966944,-12.176809764249352,-127.79715304286756,-127.79715304286756
1412500000,-12.328109510974524,-139.3079174894955,-499.3079174894955,-3.3913220468340373,136.31428624711546,-223.68571375288454,-4.539701606240156,141.747437658004,-218.252562341996,-11.830177463493637,-124.14846232779033,-124.14846232779033
1425000000,-12.989107830200568,-141.3226242932075,-501.32262429320747,-4.689510783293194,137.4684433867395,-222.5315566132605,-5.3868314362830905,137.20409857388458,-222.79590142611542,-12.716985238760412,-130.63506118682434,-130.63506118682434
1437500000,-12.787493131540838,-148.19005470226358,-508.1900547022636,-5.277905242642573,131.39576000582164,-228.60423999417836,-5.457428505247525,127.11702359097671,-232.88297640902329,-14.45604919865292,-127.67665625001945,-127.67665625001945
1450000000,-13.877071310784032,-153.57732324849312,-513.5773232484931,-5.554344869642422,120.94826507494662,-239.05173492505338,-4.581437076710952,119.40296123682683,-240.59703876317317,-12.806127138896413,-138.12363511298543,-138.12363511298543
1462500000,-13.738319102288852,-153.1437605442149,-513.143760544215,-4.518315918861264,116.27866496807397,-243.72133503192603,-3.6959745398375397,119.7751541404745,-240.2248458595255,-14.865993987400053,-127.47552259611933,-127.47552259611933
1475000000,-13.514119674465539,-155.7681980900147,-515.7681980900147,-4.126109254200952,120.3619944753379,-239.6380055246621,-3.5054396500737415,123.055712017013,-236.94428798298702,-13.696507548558037,-134.55728531091697,-134.55728531091697
1487500000,-16.87751086722927,-170.29057476713763,-530.2905747671376,-4.953141145944979,125.79220214096651,-234.2077978590335,-4.206599192953752,123.98822429873044,-236.01177570126956,-10.921453453620815,-137.8780756937764,-137.8780756937764
1500000000,-16.38385162767099,177.85277324457684,-542.1472267554232,-6.259369414915021,125.272450489242,-234.727549510758,-5.22869988955335,118.22691482739191,-241.7730851726081,-13.550982293222605,-123.95992508250272,-123.95992508250272
