Frequency[Hz],S11/dB,S11/phase[deg],S11/unwrapped_phase[deg],S12/dB,S12/phase[deg],S12/unwrapped_phase[deg],S21/dB,S21/phase[deg],S21/unwrapped_phase[deg],S22/dB,S22/phase[deg], S22/unwrapped_phase[deg]
500000000,-11.08811811,41.54564587,41.54564587,-5.519147991,-81.75129484,-81.75129484,-4.387774684,-76.76989483,-76.76989483,-4.730999617,77.11117271,77.11117271
512500000,-10.87572953,33.83629259,33.83629259,-5.211101279,-89.14885234,-89.14885234,-5.243635045,-79.17517451,-79.17517451,-4.077247372,81.07497214,81.07497214
525000000,-11.57798667,32.8652455,32.8652455,-4.111647462,-94.52941342,-94.52941342,-5.811855753,-86.89080885,-86.89080885,-3.569349863,83.08399277,83.08399277
537500000,-11.49407285,31.08079085,31.08079085,-3.724380415,-86.92335399,-86.92335399,-5.784651294,-92.86396378,-92.86396378,-5.006320701,83.40496272,83.40496272
550000000,-12.03895442,24.1274072,24.1274072,-4.397720759,-85.02640465,-85.02640465,-4.995173674,-97.2861708,-97.2861708,-5.510269525,72.55404884,72.55404884
562500000,-12.07490137,22.38984979,22.38984979,-5.456410642,-88.5617877,-88.5617877,-4.406641448,-96.51053574,-96.51053574,-5.130528949,63.76249232,63.76249232
575000000,-14.45744138,8.285976831,8.285976831,-5.960049593,-96.64456979,-96.64456979,-4.805695575,-90.73140157,-90.73140157,-3.946702565,60.08834661,60.08834661
587500000,-13.5683128,3.542560687,3.542560687,-5.310027423,-105.8487972,-105.8487972,-5.959453869,-92.62679786,-92.62679786,-3.463062986,64.05047521,64.05047521
600000000,-14.57909641,-5.572004224,-5.572004224,-4.024708732,-107.0947138,-107.0947138,-6.701221285,-97.12524833,-97.12524833,-4.344834803,62.84169661,62.84169661
612500000,-14.96086637,-10.92852079,-10.92852079,-3.322274246,-102.2128297,-102.2128297,-6.405656026,-106.2592373,-106.2592373,-4.557879738,56.26883109,56.26883109
625000000,-15.14387392,-32.48867452,-32.48867452,-4.51387803,-101.2709643,-101.2709643,-5.257299066,-110.052541,-110.052541,-4.908466207,43.01167903,43.01167903
637500000,-16.08177649,-41.41318748,-41.41318748,-5.16793216,-109.7461724,-109.7461724,-4.677163896,-109.390737,-109.390737,-3.836744519,40.03025808,40.03025808
650000000,-17.04734253,-35.25806205,-35.25806205,-5.778990376,-118.8786639,-118.8786639,-5.028527623,-110.6867273,-110.6867273,-4.168455898,36.30220111,36.30220111
662500000,-19.1733114,-44.18934327,-44.18934327,-5.396108893,-125.6207978,-125.6207978,-6.002358085,-116.8908623,-116.8908623,-4.844370338,36.53448682,36.53448682
675000000,-21.34088388,-60.00223284,-60.00223284,-5.317235444,-127.0761124,-127.0761124,-6.427743001,-122.1732541,-122.1732541,-4.873611782,24.80082038,24.80082038
687500000,-19.67792774,-106.0614415,-106.0614415,-6.023219931,-126.1259364,-126.1259364,-6.816027119,-126.6221761,-126.6221761,-4.451219621,17.50322537,17.50322537
700000000,-20.06582719,-98.07178783,-98.07178783,-7.309020455,-126.8010341,-126.8010341,-7.299676637,-125.8990276,-125.8990276,-4.054148822,12.28688315,12.28688315
712500000,-21.06908537,-103.5211731,-103.5211731,-8.323917442,-132.3071196,-132.3071196,-7.821902368,-127.1254375,-127.1254375,-4.395186918,7.86944155,7.86944155
725000000,-22.00372033,-139.7152448,-139.7152448,-8.718369264,-138.7594777,-138.7594777,-8.569905154,-122.147508,-122.147508,-4.138884885,-0.283999071,-0.283999071
737500000,-22.45258834,-140.5757997,-140.5757997,-8.394334473,-138.0990354,-138.0990354,-10.19043645,-122.6928907,-122.6928907,-4.466257821,-4.125894266,-4.125894266
750000000,-21.76715065,-154.2696092,-154.2696092,-9.174048723,-131.1498839,-131.1498839,-10.62183322,-128.6343125,-128.6343125,-4.186675121,-7.374131108,-7.374131108
762500000,-22.05963706,-172.0299132,-172.0299132,-10.49361341,-126.2153025,-126.2153025,-10.10270198,-129.6547658,-129.6547658,-4.642597623,-14.09855304,-14.09855304
775000000,-22.3807881,154.5992709,-205.4007291,-11.96244098,-126.7907576,-126.7907576,-9.751141353,-123.7473312,-123.7473312,-4.901517165,-20.37220957,-20.37220957
787500000,0.353872102,174.0552462,-185.9447538,-21.96183452,-39.98664315,-39.98664315,-23.56973138,-167.5003847,-167.5003847,0.392323453,76.07531246,76.07531246
800000000,-20.74840096,133.2668994,-226.7331006,-11.53489844,-129.629351,-129.629351,-10.71092174,-108.1648396,-108.1648396,-4.589648232,-32.73523899,-32.73523899
812500000,-18.61164354,121.8738811,-238.1261189,-10.36134522,-121.7360264,-121.7360264,-11.46443666,-108.9982193,-108.9982193,-4.189373094,-32.74530161,-32.74530161
825000000,-20.61616914,91.76686032,-268.2331397,-9.653687684,-109.3527711,-109.3527711,-11.07231174,-109.9867272,-109.9867272,-5.133806982,-31.65804511,-31.65804511
837500000,-17.04840417,89.76257318,-270.2374268,-10.44447086,-102.7122647,-102.7122647,-9.725892822,-114.0175539,-114.0175539,-6.201910213,-33.8114431,-33.8114431
850000000,-16.8818433,97.29599538,-262.7040046,-10.78094491,-104.423762,-104.423762,-8.257203581,-110.0090062,-110.0090062,-5.702619801,-45.66561132,-45.66561132
862500000,-16.4264518,87.134009,-272.865991,-10.56601643,-111.9855801,-111.9855801,-7.403971443,-105.0642597,-105.0642597,-6.124078915,-48.42566694,-48.42566694
875000000,-16.21839238,57.51516584,-302.4848342,-8.986378089,-116.7712784,-116.7712784,-7.57103423,-101.3130035,-101.3130035,-5.625598143,-45.08310611,-45.08310611
887500000,-14.60203482,52.90173888,-307.0982611,-7.406852767,-115.9253772,-115.9253772,-7.783957861,-103.191731,-103.191731,-5.549355941,-55.18997401,-55.18997401
900000000,-13.9755516,45.67388399,-314.326116,-6.573295419,-110.2608366,-110.2608366,-7.975120474,-112.3470922,-112.3470922,-6.22205993,-49.27186188,-49.27186188
912500000,-12.86043001,35.71223805,-324.287762,-6.871841113,-109.5231725,-109.5231725,-6.849183376,-118.6137024,-118.6137024,-7.517845261,-56.8553644,-56.8553644
925000000,-12.87055447,43.1483875,-316.8516125,-7.610189207,-113.0849419,-113.0849419,-5.723275097,-121.7291466,-121.7291466,-7.637097405,-63.37210221,-63.37210221
937500000,-12.48895162,30.98838382,-329.0116162,-7.40060808,-122.6727342,-122.6727342,-5.087142506,-121.5507014,-121.5507014,-7.654570934,-61.35217059,-61.35217059
950000000,-12.54812163,20.22557867,-339.7744213,-6.723524243,-128.904461,-128.904461,-5.088240633,-118.2555805,-118.2555805,-7.231039725,-60.42522184,-60.42522184
962500000,-12.55506596,16.27519138,-343.7248086,-5.552480629,-131.820289,-131.820289,-5.666209428,-119.3853803,-119.3853803,-8.874073764,-61.65669559,-61.65669559
975000000,-11.48219193,9.505866171,-350.4941338,-4.930361864,-130.1692728,-130.1692728,-6.110533793,-126.7888097,-126.7888097,-9.906996334,-66.41982346,-66.41982346
987500000,-11.80482267,9.062033404,-350.9379666,-5.337276581,-127.1213132,-127.1213132,-5.945378052,-135.4360434,-135.4360434,-10.5414121,-62.67632735,-62.67632735
1000000000,-11.23228438,3.575562332,-356.4244377,-6.383605641,-128.5384098,-128.5384098,-5.179658806,-141.4821495,-141.4821495,-10.36671558,-74.54374816,-74.54374816
1012500000,-11.82352252,-2.648172158,-362.6481722,-6.628330174,-135.8003425,-135.8003425,-4.506819522,-141.8656416,-141.8656416,-10.22822392,-70.71149086,-70.71149086
1025000000,-12.78435485,-6.821225821,-366.8212258,-6.266946665,-144.327236,-144.327236,-3.927820109,-139.4545606,-139.4545606,-10.6749495,-74.45371104,-74.45371104
1037500000,-12.1503679,-8.52818632,-368.5281863,-5.168908723,-146.8124507,-146.8124507,-4.229494959,-138.5230786,-138.5230786,-11.21093747,-67.61780984,-67.61780984
1050000000,-10.09837044,1.387218617,-358.6127814,-3.930071487,-146.9608073,-146.9608073,-4.775883321,-143.6316276,-143.6316276,-24.70409798,-120.1185529,-120.1185529
1062500000,-12.29373812,-12.89052841,-372.8905284,-4.024959413,-145.4086614,-145.4086614,-4.757198192,-148.2305309,-148.2305309,-13.02638938,-84.94220782,-84.94220782
1075000000,-12.82137888,-18.44857003,-378.44857,-4.256445954,-144.9461598,-144.9461598,-4.336162813,-154.2426918,-154.2426918,-13.03504121,-89.85587714,-89.85587714
1087500000,-11.65373662,-21.3920773,-381.3920773,-4.695128227,-149.9805705,-149.9805705,-3.99274574,-157.9286637,-157.9286637,-13.81217339,-93.7942136,-93.7942136
1100000000,-12.23620507,-27.43915443,-387.4391544,-4.487200766,-156.1827904,-156.1827904,-3.647455495,-158.8754363,-158.8754363,-13.65314283,-100.7337995,-100.7337995
1112500000,-13.15749884,-32.2836726,-392.2836726,-3.999200484,-160.5284351,-160.5284351,-3.637704556,-160.4697632,-160.4697632,-13.57521021,-105.3372947,-105.3372947
1125000000,-13.10160293,-36.9599291,-396.9599291,-4.109576024,-162.2415306,-162.2415306,-3.692105678,-165.0044139,-165.0044139,-13.63107084,-110.8942073,-110.8942073
1137500000,-13.8983874,-39.21260303,-399.212603,-3.860048756,-166.7739583,-166.7739583,-3.612513971,-166.7690282,-166.7690282,-14.9347316,-110.0118263,-110.0118263
1150000000,-14.71090782,-37.77491851,-397.7749185,-3.790458011,-169.7402686,-169.7402686,-3.841451253,-167.6909392,-167.6909392,-13.83027967,-109.4780567,-109.4780567
1162500000,-16.20505475,-48.76260227,-408.7626023,-3.673553755,-173.2837274,-173.2837274,-4.001642151,-171.9191098,-171.9191098,-15.1574712,-109.9211207,-109.9211207
1175000000,-14.92941754,-64.00645588,-424.0064559,-3.829274621,-175.8900519,-175.8900519,-4.141964581,-176.5275647,-176.5275647,-15.15967568,-123.4264002,-123.4264002
1187500000,-14.4315138,-69.06971085,-429.0697108,-4.077532825,-179.6161199,-179.6161199,-4.131275594,-179.3726753,-179.3726753,-14.60098332,-134.8447165,-134.8447165
1200000000,-14.3393079,-70.19457828,-430.1945783,-3.88846046,178.4182081,-181.5817919,-3.948970269,176.160176,-183.839824,-13.38409713,-122.345424,-122.345424
1212500000,-15.1641093,-70.95391456,-430.9539146,-3.839459629,175.8460974,-184.1539026,-3.877723141,174.643253,-185.356747,-12.87058502,-112.2361756,-112.2361756
1225000000,-15.21942282,-79.92268551,-439.9226855,-4.105154314,172.0824833,-187.9175167,-4.152490119,171.8238184,-188.1761816,-14.57367221,-126.1237069,-126.1237069
1237500000,-15.83177432,-93.24972248,-453.2497225,-4.165062049,169.7183896,-190.2816104,-4.220371792,170.1839442,-189.8160558,-14.47910907,-126.6948028,-126.6948028
1250000000,-14.16868611,-91.00962481,-451.0096248,-3.984472895,165.5008026,-194.4991974,-4.075028063,166.6677683,-193.3322317,-13.35829438,-128.1842015,-128.1842015
1262500000,-14.16717041,-102.4889189,-462.4889189,-3.972263332,164.093395,-195.906605,-4.345111047,165.4772826,-194.5227174,-14.34111007,-129.1411827,-129.1411827
1275000000,-14.21298125,-102.1305616,-462.1305616,-3.938138547,163.7301309,-196.2698691,-4.473758073,163.1395815,-196.8604185,-13.34556105,-132.913079,-132.913079
1287500000,-13.88720357,-104.5835985,-464.5835985,-4.628379715,161.085377,-198.914623,-4.652165071,157.9015331,-202.0984669,-12.50855054,-129.9246159,-129.9246159
1300000000,-14.02341135,-109.8488295,-469.8488295,-4.943305393,157.9591034,-202.0408966,-4.690469954,153.4669664,-206.5330336,-14.25488862,-124.7098535,-124.7098535
1312500000,-13.42218495,-117.7008978,-477.7008978,-4.848725529,155.1642707,-204.8357293,-4.058390087,150.4345314,-209.5654686,-14.93163581,-121.5059392,-121.5059392
1325000000,-14.10141596,-123.2897069,-483.2897069,-4.347303903,149.2671017,-210.7328983,-3.860280743,149.4876793,-210.5123207,-14.07002237,-129.9066963,-129.9066963
1337500000,-12.00049499,-123.869581,-483.869581,-3.850542336,152.6227661,-207.3772339,-4.282787679,152.6832324,-207.3167676,-12.12848688,-131.0819583,-131.0819583
1350000000,-12.76173469,-116.6816971,-476.6816971,-3.796940957,155.3708062,-204.6291938,-5.206327416,152.7881754,-207.2118246,-10.92705895,-120.6544293,-120.6544293
1362500000,-13.26251534,-118.5842508,-478.5842508,-4.470905027,154.4805676,-205.5194324,-5.565755676,145.0857793,-214.9142207,-12.18823535,-115.2496849,-115.2496849
1375000000,-13.92209815,-126.8308398,-486.8308398,-5.246228727,147.2861968,-212.7138032,-5.017104404,137.0045099,-222.9954901,-13.04197242,-135.7741214,-135.7741214
1387500000,-12.51905946,-140.0219129,-500.0219129,-4.534646186,138.5465077,-221.4534923,-4.252091789,136.9797319,-223.0202681,-12.65084862,-132.4133363,-132.4133363
1400000000,-12.27428052,-141.1413028,-501.1413028,-3.543407361,135.9295779,-224.0704221,-3.891939128,140.0243117,-219.9756883,-11.70287392,-131.2881466,-131.2881466
1412500000,-12.26509846,-142.3586358,-502.3586358,-3.395204415,136.5541316,-223.4458684,-4.4739539,142.1328448,-217.8671552,-12.35695122,-121.2878424,-121.2878424
1425000000,-13.16493232,-139.9585219,-499.9585219,-4.696265622,137.5822575,-222.4177425,-5.29218852,137.3544573,-222.6455427,-12.04214825,-131.5531227,-131.5531227
1437500000,-13.3102296,-143.4585583,-503.4585583,-5.398639715,130.9348152,-229.0651848,-5.536669061,127.7149011,-232.2850989,-14.20361378,-128.1443011,-128.1443011
1450000000,-13.3382045,-158.4102448,-518.4102448,-5.623021315,120.1901086,-239.8098914,-4.588719729,120.0731339,-239.9268661,-13.11026702,-123.0907937,-123.0907937
1462500000,-13.71558912,-156.5849708,-516.5849708,-4.59713509,116.4187778,-243.5812222,-3.588376461,120.0368146,-239.9631854,-14.00193991,-122.0391296,-122.0391296
1475000000,-13.41700003,-160.7905395,-520.7905395,-4.170992724,121.088337,-238.911663,-3.505331721,122.7894429,-237.2105571,-12.78208991,-135.6869768,-135.6869768
1487500000,-17.40621159,-179.4355878,-539.4355878,-4.983455989,126.3134111,-233.6865889,-4.189777012,124.0708143,-235.9291857,-11.091593,-137.861025,-137.861025
1500000000,-16.14287655,-174.3149536,-534.3149536,-6.171188895,126.0679304,-233.9320696,-5.363021052,118.3038052,-241.6961948,-13.32981729,-119.7189783,-119.7189783
1512500000,-14.91948381,178.5100778,-541.4899222,-7.25369846,116.3637315,-243.6362685,-6.01644692,106.9394352,-253.0605648,-11.58210535,-148.1227155,-148.1227155
1525000000,-18.34958181,167.693974,-552.306026,-6.624715756,108.2229722,-251.7770278,-5.626631471,99.07120674,-260.9287933,-14.84757826,-150.0258253,-150.0258253
1537500000,-17.67758563,162.5397858,-557.4602142,-5.587803997,103.1976182,-256.8023818,-4.722085934,96.85771818,-263.1422818,-15.08282663,-154.4875652,-154.4875652
1550000000,-16.22716103,142.3760073,-577.6239927,-4.783007612,105.365526,-254.634474,-4.531546657,100.2800196,-259.7199804,-12.56051562,-156.7567628,-156.7567628
1562500000,-15.7404588,117.0929152,-602.9070848,-4.945342943,105.8698732,-254.1301268,-5.212483343,102.6170761,-257.3829239,-14.61191966,-145.4005773,-145.4005773
1575000000,-16.87682212,92.46612618,-627.5338738,-10.05420701,130.363409,-229.636591,-7.548223665,101.0149134,-258.9850866,-20.23677833,151.864067,-208.135933
1587500000,-16.43610466,114.9378846,-605.0621154,-6.881685102,101.4094941,-258.5905059,-7.167292803,92.02309999,-267.9769,-10.07698405,-172.9166745,-172.9166745
1600000000,-15.92362822,117.6137203,-602.3862797,-7.390145475,89.73165482,-270.2683452,-7.274926769,83.13478276,-276.8652172,-9.081321714,-178.9969454,-178.9969454
1612500000,-18.90681218,101.2621032,-618.7378968,-6.442453509,82.21159301,-277.788407,-6.563347819,77.09638307,-282.9036169,-9.432493124,178.1876331,-181.8123669
1625000000,-17.4148029,78.09139776,-641.9086022,-6.160798362,79.97408195,-280.0259181,-5.87445765,76.54859429,-283.4514057,-9.797114487,-174.5036828,-174.5036828
1637500000,-14.99933713,73.64492402,-646.355076,-5.989757229,81.97461051,-278.0253895,-5.974356131,78.66275699,-281.337243,-9.154409486,176.5499321,-183.4500679
1650000000,-13.25527062,70.49570344,-649.5042966,-6.958173562,87.57334755,-272.4266524,-6.9339362,79.42706418,-280.5729358,-9.070003219,171.3835871,-188.6164129
1662500000,-13.3101953,88.73977691,-631.2602231,-8.582484583,84.42345964,-275.5765404,-8.691266411,76.7786546,-283.2213454,-8.402203796,167.2088226,-192.7911774
1675000000,-14.65979941,70.80168772,-649.1983123,-9.370078461,80.81046826,-279.1895317,-9.505692365,66.8538351,-293.1461649,-6.990200732,156.6958742,-203.3041258
1687500000,-15.41543134,72.91979434,-647.0802057,-10.01369429,67.8867167,-292.1132833,-10.03946319,60.00508787,-299.9949121,-7.949350355,158.0732958,-201.9267042
1700000000,-14.96546634,47.63770744,-672.3622926,-10.2744351,64.77707423,-295.2229258,-10.25974065,57.14117168,-302.8588283,-7.662535863,155.4388092,-204.5611908
1712500000,-13.59529892,43.5187567,-676.4812433,-9.994666695,65.28091154,-294.7190885,-10.23833139,58.30199345,-301.6980065,-6.660588796,154.2915365,-205.7084635
1725000000,-12.96609533,53.56131153,-666.4386885,-10.67962017,70.22339266,-289.7766073,-11.07693253,65.26516006,-294.7348399,-6.8419725,145.66174,-214.33826
1737500000,-12.92448708,55.22402763,-664.7759724,-12.15083996,78.99763175,-281.0023682,-12.46033012,67.57760603,-292.422394,-5.802768007,138.7464885,-221.2535115
1750000000,-14.68090311,55.19056421,-664.8094358,-13.51854184,81.20243818,-278.7975618,-13.97919456,72.73554796,-287.264452,-4.219315594,140.8950709,-219.1049291
1762500000,-16.97653417,46.32000494,-673.6799951,-15.12665999,76.30046757,-283.6995324,-15.65646377,69.28214674,-290.7178533,-4.158512221,144.4553389,-215.5446611
1775000000,-19.48903533,63.8311008,-656.1688992,-15.7006041,78.02946579,-281.9705342,-16.07549969,72.34149076,-287.6585092,-3.58364181,141.0335554,-218.9664446
1787500000,-20.16687094,41.0155368,-678.9844632,-13.74234659,77.97361372,-282.0263863,-15.0855173,70.42950099,-289.570499,-4.741398319,134.233807,-225.766193
1800000000,-23.5464904,50.96398028,-669.0360197,-12.24793261,83.34069644,-276.6593036,-13.62641216,81.39222342,-278.6077766,-4.086001282,125.6308557,-234.3691443
1812500000,-25.31641372,99.23823472,-620.7617653,-11.81809452,96.97407519,-263.0259248,-13.68861922,93.51321458,-266.4867854,-5.033849147,117.8634843,-242.1365157
1825000000,-24.92984165,70.26285675,-649.7371433,-11.3145619,106.835299,-253.164701,-13.25745851,104.8503211,-255.1496789,-3.425052862,123.0394387,-236.9605613
1837500000,-26.32178487,179.4887699,-540.5112301,-11.6106322,115.1038845,-244.8961155,-14.2035105,108.778163,-251.221837,-2.966621087,121.5599536,-238.4400464
1850000000,-22.79948168,168.474428,-551.525572,-12.43174269,110.2033778,-249.7966222,-14.63785746,108.374734,-251.625266,-2.890138794,116.0327475,-243.9672525
1862500000,-15.8979618,171.5961096,-548.4038904,-12.10751863,103.56526,-256.43474,-14.54463136,104.3781292,-255.6218708,-5.083221046,112.8237185,-247.1762815
1875000000,-16.925743,-169.2788254,-529.2788254,-10.55875691,101.2848462,-258.7151538,-13.22804674,98.17104262,-261.8289574,-6.072712628,108.5441351,-251.4558649
1887500000,-14.02059151,175.5815096,-544.4184904,-9.352854652,96.98631445,-263.0136856,-12.01510415,98.18048728,-261.8195127,-4.128696567,89.90339794,-270.0966021
1900000000,-13.64707603,161.0788619,-558.9211381,-8.124359761,102.8569443,-257.1430557,-10.56588028,104.4972496,-255.5027504,-2.85146608,80.52059381,-279.4794062
1912500000,-13.89668432,170.7892861,-549.2107139,-7.896351598,104.5938531,-255.4061469,-10.95415577,110.4181887,-249.5818113,-2.379518352,81.62592328,-278.3740767
1925000000,-11.42376891,162.9685842,-557.0314158,-8.495193489,103.1601592,-256.8398408,-11.12682058,111.3880633,-248.6119367,-2.056415261,86.77322297,-273.226777
1937500000,-11.2025104,168.984211,-551.015789,-9.225434199,95.43176074,-264.5682393,-11.64624646,103.2905379,-256.7094621,-3.943848166,85.08460975,-274.9153902
1950000000,-10.35831326,161.3219941,-558.6780059,-8.843317232,84.34004679,-275.6599532,-10.41591203,92.91549468,-267.0845053,-4.939338834,73.2988024,-286.7011976
1962500000,-12.44301586,155.4263274,-564.5736726,-7.935725693,79.27195827,-280.7280417,-8.894181281,88.21594946,-271.7840505,-5.812735392,68.67150836,-291.3284916
1975000000,-11.14416655,168.2012669,-551.7987331,-6.903759891,80.36914556,-279.6308544,-7.790306421,89.23065948,-270.7693405,-4.613096714,51.45281293,-308.5471871
1987500000,-10.33507327,153.8803051,-566.1196949,-5.906911604,80.03583669,-279.9641633,-6.957053045,94.91426671,-265.0857333,-2.70259703,54.06329292,-305.9367071
