Frequency[Hz],S11/dB,S11/phase[deg],S11/unwrapped_phase[deg],S12/dB,S12/phase[deg],S12/unwrapped_phase[deg],S21/dB,S21/phase[deg],S21/unwrapped_phase[deg],S22/dB,S22/phase[deg], S22/unwrapped_phase[deg]
500000000,-11.28401060704337,39.31330486027074,39.31330486027074,-5.525507077656311,-81.91792399231605,-81.91792399231605,-4.424697935987937,-77.06470460055503,-77.06470460055503,-4.768001713653468,76.9258568619922,76.9258568619922
512500000,-10.972298160480545,35.52823682471303,35.52823682471303,-5.065198549445999,-88.99761793601152,-88.99761793601152,-5.252855190758991,-78.9004710652571,-78.9004710652571,-3.8639522828338007,79.33400632107346,79.33400632107346
525000000,-12.203746878880688,35.39135637172138,35.39135637172138,-3.73241146433889,-97.18489778204044,-97.18489778204044,-5.9067382781754105,-84.15084959494192,-84.15084959494192,-2.522663043934469,70.93377886843406,70.93377886843406
537500000,-11.83961272057742,32.66274966123206,32.66274966123206,-3.829416346985646,-87.52112767499489,-87.52112767499489,-5.731360324128624,-92.36116529764728,-92.36116529764728,-5.304331480081209,82.44321400063386,82.44321400063386
550000000,-12.024385051780833,23.580736145187135,23.580736145187135,-4.400381313502486,-85.35115051475913,-85.35115051475913,-5.156183104092226,-97.53608057112474,-97.53608057112474,-5.578596437677492,74.73103964123203,74.73103964123203
562500000,-12.160685320691545,21.47135664943283,21.47135664943283,-5.672778476768677,-88.44358671141208,-88.44358671141208,-4.506329285119788,-96.34928883367897,-96.34928883367897,-5.308943986445618,61.32514316568738,61.32514316568738
575000000,-14.163693083347187,2.648826257245553,2.648826257245553,-6.154545079676734,-96.20062449672021,-96.20062449672021,-4.879867358498772,-90.81743647542413,-90.81743647542413,-3.953392363716357,59.82767834081182,59.82767834081182
587500000,-13.439713662932014,5.449598262273093,5.449598262273093,-5.273206900960225,-106.7969563768674,-106.7969563768674,-5.939146510756453,-92.82803687737668,-92.82803687737668,-3.4151037317647277,64.94966946793245,64.94966946793245
600000000,-14.58190512954896,-0.3603416584607019,-0.3603416584607019,-4.087815944491246,-105.87517975665918,-105.87517975665918,-6.687587938367699,-97.67425820653578,-97.67425820653578,-4.6116993696905535,61.12145674647603,61.12145674647603
612500000,-15.945731892613571,-17.10998579266466,-17.10998579266466,-3.237492553142597,-102.01696187863642,-102.01696187863642,-6.321399739361702,-106.23822461076854,-106.23822461076854,-4.610733218032277,56.41580253896355,56.41580253896355
625000000,-15.30072424575373,-33.294621597228435,-33.294621597228435,-4.515591079270507,-102.19748394147149,-102.19748394147149,-5.31281696907744,-109.36572196669584,-109.36572196669584,-4.596690666017709,42.20783683733169,42.20783683733169
637500000,-16.339386548402704,-42.18856079196342,-42.18856079196342,-5.1226732708213,-110.14768197115072,-110.14768197115072,-4.632345481412655,-109.8460162783414,-109.8460162783414,-3.8914041583379655,41.43588593116949,41.43588593116949
650000000,-17.421374689727124,-41.91099097810973,-41.91099097810973,-5.785480817966414,-119.64671821938617,-119.64671821938617,-5.005647282529542,-111.16392636146077,-111.16392636146077,-4.1472218682152,37.26720264340678,37.26720264340678
662500000,-19.160896426889693,-38.81214179660284,-38.81214179660284,-5.55686990842573,-125.14309061240742,-125.14309061240742,-5.935098168880563,-117.88115344969297,-117.88115344969297,-4.979412326519429,36.15336891185629,36.15336891185629
675000000,-22.187875439438894,-45.918795894235224,-45.918795894235224,-5.370884453361401,-126.66278566574422,-126.66278566574422,-6.45398610296173,-122.33792536255781,-122.33792536255781,-4.612907375528034,22.03437727451176,22.03437727451176
687500000,-19.02553342239751,-94.8076405070399,-94.8076405070399,-6.038086456973194,-126.29590632123441,-126.29590632123441,-6.799254722802833,-126.35434564117239,-126.35434564117239,-4.511841342759325,18.081573817483854,18.081573817483854
700000000,-18.424963534268354,-92.18097957344496,-92.18097957344496,-7.351729246972156,-127.05042834768923,-127.05042834768923,-7.344129258482209,-127.92871525552897,-127.92871525552897,-4.369460600700878,12.273294232386153,12.273294232386153
712500000,-20.93529667142167,-106.8717958147577,-106.8717958147577,-8.656158661689394,-133.42643222278656,-133.42643222278656,-7.750529237880187,-126.54139024442665,-126.54139024442665,-4.3811450753034356,7.394421802122965,7.394421802122965
725000000,-23.285967071321764,-137.94179455473864,-137.94179455473864,-8.780488443069357,-138.54292487532916,-138.54292487532916,-8.645502990867037,-123.83048736110597,-123.83048736110597,-4.639296137654694,-0.8938137112171249,-0.8938137112171249
737500000,-21.440668896787983,-139.06454943299488,-139.06454943299488,-8.481549870734394,-138.2017950945841,-138.2017950945841,-10.126415956805804,-122.39892350499932,-122.39892350499932,-4.04377252512518,-4.482882735693028,-4.482882735693028
750000000,-21.02282126067204,-159.7269704341514,-159.7269704341514,-9.069970964671239,-131.64637107002687,-131.64637107002687,-10.65301698651438,-127.59035452177157,-127.59035452177157,-4.634464804401514,-7.922294072164657,-7.922294072164657
762500000,-23.15220744852036,-173.36496510062003,-173.36496510062003,-10.413913311608686,-126.80944229215751,-126.80944229215751,-10.041142779397878,-129.52291342790815,-129.52291342790815,-4.445878395789449,-13.491099016136317,-13.491099016136317
775000000,-21.24517230152771,159.26623900647132,-200.73376099352868,-12.195057041871411,-126.21088989150218,-126.21088989150218,-9.671937005122404,-122.74634516959233,-122.74634516959233,-4.516463155737232,-18.897983075459713,-18.897983075459713
787500000,0.2660512814525192,173.61771854602964,-186.38228145397036,-17.926994785208738,-68.16932622693417,-68.16932622693417,-24.22932479641132,114.31621436047315,-245.68378563952683,-15.997570515935223,-68.41260143584337,-68.41260143584337
800000000,-20.212815771339926,141.40929751551025,-218.59070248448975,-11.392992076338636,-127.60708949304185,-127.60708949304185,-10.567714949818864,-107.91916516116646,-107.91916516116646,-4.692096542968545,-32.7731439380078,-32.7731439380078
812500000,-17.821257433550713,107.56447643600616,-252.43552356399385,-10.138916683433418,-120.03229248059725,-120.03229248059725,-11.576618781913053,-107.36751491248774,-107.36751491248774,-4.439190061363903,-34.657285025138606,-34.657285025138606
825000000,-18.527130840216103,90.1677037023605,-269.8322962976395,-9.865532487353974,-110.04638263607666,-110.04638263607666,-11.007256539677261,-110.56203083462205,-110.56203083462205,-5.105170763338087,-34.726300731170255,-34.726300731170255
837500000,-17.100080015560252,97.4758702036908,-262.5241297963092,-10.43273581992186,-102.34227764650221,-102.34227764650221,-9.607199802026022,-113.06480971549595,-113.06480971549595,-5.7816242732940015,-35.62842318497517,-35.62842318497517
850000000,-16.137849721474904,91.48007919138666,-268.51992080861334,-10.648149139884993,-103.29593042025844,-103.29593042025844,-8.128511348320242,-110.53661506804764,-110.53661506804764,-5.600563079207758,-44.688691992443964,-44.688691992443964
862500000,-15.215360619710099,82.9596899375509,-277.04031006244907,-10.504450363906404,-112.51318032323972,-112.51318032323972,-7.267068175938972,-105.26522211101535,-105.26522211101535,-6.1849127509984285,-47.16636105474773,-47.16636105474773
875000000,-15.971185958943856,52.811730778080076,-307.18826922191994,-9.05069349236453,-115.89546906560844,-115.89546906560844,-7.428004193669189,-101.3614676979562,-101.3614676979562,-5.495244525391172,-46.13498239218758,-46.13498239218758
887500000,-14.777658181793656,48.22717198580926,-311.77282801419074,-7.43655781644994,-116.73027160933944,-116.73027160933944,-7.826918652412913,-104.05552327793494,-104.05552327793494,-5.681119674623897,-53.56495858286927,-53.56495858286927
900000000,-13.326557349029198,50.23867170244772,-309.76132829755227,-6.615515102310966,-111.08768136311004,-111.08768136311004,-7.893413155046389,-111.99611172522697,-111.99611172522697,-6.283872708424322,-48.96633981744761,-48.96633981744761
912500000,-12.44470209765532,40.70280973493238,-319.2971902650676,-6.933272529846208,-108.85535984884959,-108.85535984884959,-6.894094013133797,-118.64737987285068,-118.64737987285068,-7.918551340747195,-56.72299312717128,-56.72299312717128
925000000,-13.359983446674196,40.239431119291346,-319.76056888070866,-7.62892454432089,-113.47721865522995,-113.47721865522995,-5.7353384658538085,-122.02676694465424,-122.02676694465424,-7.229648300222117,-61.95070735555573,-61.95070735555573
937500000,-12.188324816378817,29.712620785365306,-330.2873792146347,-7.589878116249789,-121.42239107370054,-121.42239107370054,-5.0046175369898815,-121.4327625753935,-121.4327625753935,-8.035121215664867,-64.9879776093537,-64.9879776093537
950000000,-12.873214927781229,20.282751365356464,-339.7172486346435,-6.77915966351385,-129.0514493328157,-129.0514493328157,-5.000843117414871,-118.34652632917023,-118.34652632917023,-7.367782744696829,-62.81929772496045,-62.81929772496045
962500000,-12.671039923768534,13.867308090908601,-346.1326919090914,-5.5706399593969795,-131.5507905954759,-131.5507905954759,-5.662007828790894,-121.06347234398538,-121.06347234398538,-8.805629742255913,-60.40918049214622,-60.40918049214622
975000000,-11.38787987140585,10.95075920673006,-349.0492407932699,-4.934243103415066,-130.57244476745274,-130.57244476745274,-6.1617775603498535,-127.41227265635533,-127.41227265635533,-10.006274636420407,-63.04863391240115,-63.04863391240115
987500000,-12.514706944770154,11.008186422422272,-348.9918135775777,-5.447104037545922,-127.04652087257398,-127.04652087257398,-5.806734264446417,-135.84591946674897,-135.84591946674897,-10.288694645517204,-66.28801938969436,-66.28801938969436
1000000000,-12.140457397341965,6.1100259502145695,-353.88997404978545,-6.32964440657099,-127.57896589119116,-127.57896589119116,-5.122254495287914,-140.95325323144422,-140.95325323144422,-11.215709388898505,-73.72688224043515,-73.72688224043515
1012500000,-11.143486207007188,-0.24187007788806403,-360.24187007788805,-6.6153151471378795,-135.6880569734107,-135.6880569734107,-4.372025434959737,-141.36756980007374,-141.36756980007374,-9.883911707519538,-77.79654933635491,-77.79654933635491
1025000000,-13.222453841513522,-9.45207785815373,-369.45207785815376,-6.122569858906109,-143.55702734256374,-143.55702734256374,-3.901709191115203,-138.9020036793628,-138.9020036793628,-10.450111812888396,-77.51566273171507,-77.51566273171507
1037500000,-11.798694844380826,-6.365401100777144,-366.36540110077715,-5.245859560649274,-147.6154085515695,-147.6154085515695,-4.267975803915121,-139.07449466072916,-139.07449466072916,-11.055747056864016,-67.45576977951012,-67.45576977951012
1050000000,-12.129072037796021,-5.091829247782633,-365.09182924778264,-4.680352459340385,-146.4355327999833,-146.4355327999833,-4.721920618159086,-139.73387199002403,-139.73387199002403,-10.939123998295909,-48.257987676448295,-48.257987676448295
1062500000,-12.169372191429176,-11.92724157520322,-371.9272415752032,-4.0593661282645535,-144.72224553527963,-144.72224553527963,-4.771177039602054,-149.08357755057898,-149.08357755057898,-13.809500892712876,-84.69094985369891,-84.69094985369891
1075000000,-11.898899165987892,-19.416910793303835,-379.4169107933038,-4.436187540559754,-144.95571960849108,-144.95571960849108,-4.517038409048407,-154.55877806781456,-154.55877806781456,-13.8495206712543,-84.85177028555123,-84.85177028555123
1087500000,-12.291689074738914,-23.027411930389608,-383.02741193038963,-4.580207815906139,-150.3350183769411,-150.3350183769411,-3.967150328877195,-158.3669043549137,-158.3669043549137,-15.543399403112424,-96.49703423686259,-96.49703423686259
1100000000,-12.488129883440225,-26.28904116878243,-386.28904116878243,-4.5359825672577125,-155.91502239622142,-155.91502239622142,-3.5854763222387427,-159.2186699603398,-159.2186699603398,-12.617499559968692,-95.00268282830804,-95.00268282830804
1112500000,-12.883436143271954,-26.633102317440738,-386.6331023174407,-4.180691799386016,-160.66748476927043,-160.66748476927043,-3.730770933584073,-160.23790906157512,-160.23790906157512,-14.569277949283697,-95.52511747018934,-95.52511747018934
1125000000,-13.259152130414895,-38.279688991069534,-398.2796889910695,-4.010706493639665,-162.59082927797087,-162.59082927797087,-3.842113267800824,-165.39702184713633,-165.39702184713633,-14.784673016392585,-107.81620771993695,-107.81620771993695
1137500000,-13.41653475766395,-37.68459090888653,-397.68459090888655,-3.9680757029421754,-167.18237012130095,-167.18237012130095,-3.671367631097361,-165.8492403864447,-165.8492403864447,-13.476286928305525,-102.87660128405315,-102.87660128405315
1150000000,-14.069920883821496,-42.24179266920626,-402.24179266920623,-3.7915260269141937,-169.8422641193093,-169.8422641193093,-3.7729298139767433,-168.13586660726978,-168.13586660726978,-14.11301569198332,-106.17042389748302,-106.17042389748302
1162500000,-15.653634987113987,-50.76883552139341,-410.7688355213934,-3.7351675427849202,-173.82807291796271,-173.82807291796271,-3.9965353737493112,-170.76529623912936,-170.76529623912936,-15.425272167937308,-102.25060768094771,-102.25060768094771
1175000000,-16.207016990527062,-62.43461928236774,-422.43461928236775,-3.8958573583974028,-175.8935523098327,-175.8935523098327,-4.252603945688705,-176.57684871807515,-176.57684871807515,-15.420894850120844,-129.00027844728575,-129.00027844728575
1187500000,-14.964720739611968,-69.48349440538571,-429.4834944053857,-4.028184186967134,-179.61418400044,-179.61418400044,-4.075244184156611,-179.92536781228935,-179.92536781228935,-15.309650698277686,-137.18899989747655,-137.18899989747655
1200000000,-14.47408749583942,-67.62573287267696,-427.62573287267696,-3.845661218922001,177.9036800403903,-182.0963199596097,-3.90926273780247,177.14800893508453,-182.85199106491547,-13.612446845169222,-120.29443774060749,-120.29443774060749
1212500000,-14.665590829294688,-77.60515023797929,-437.6051502379793,-3.8741509521110813,174.7568213503343,-185.2431786496657,-3.9770738652497006,174.5119610374602,-185.4880389625398,-14.201913602545204,-118.42250214798361,-118.42250214798361
1225000000,-15.380713288601788,-77.1790319076114,-437.1790319076114,-3.9571001146214813,171.31083332503283,-188.68916667496717,-4.110427086321023,171.1900377076189,-188.8099622923811,-14.512564711285645,-119.97239615401864,-119.97239615401864
1237500000,-15.475055910155756,-86.13686818614137,-446.1368681861414,-4.193456690156959,169.14224718020694,-190.85775281979306,-4.147593513969606,170.38208104512455,-189.61791895487545,-13.630691253271078,-122.50933957241962,-122.50933957241962
1250000000,-15.28378016888513,-91.01130539359646,-451.01130539359644,-3.9959968723268635,165.12482020977163,-194.87517979022837,-3.9192378470408498,166.34099720518702,-193.65900279481298,-12.580189350296001,-119.08602100104021,-119.08602100104021
1262500000,-14.70294876571771,-91.92448057179037,-451.92448057179035,-3.936987938414292,165.18946800817452,-194.81053199182548,-4.253420779408392,165.16109565325752,-194.83890434674248,-13.060122781131899,-135.44250192752668,-135.44250192752668
1275000000,-14.664381782837797,-98.19003967168129,-458.1900396716813,-3.944718172517829,164.10216982508237,-195.89783017491763,-4.477501090266695,163.00866940759778,-196.99133059240222,-12.896798915574067,-133.79316588718382,-133.79316588718382
1287500000,-14.534840158057927,-106.27227515353104,-466.27227515353104,-4.37921107037986,161.7500198542372,-198.2499801457628,-4.639126367529333,158.5797426685099,-201.4202573314901,-13.026128520466525,-132.35040310572072,-132.35040310572072
1300000000,-14.132201785750702,-109.79515672695315,-469.79515672695317,-5.009207873678766,158.93610644255224,-201.06389355744776,-4.6167203160834,152.45230488208276,-207.54769511791724,-13.421890105367144,-126.04736822792242,-126.04736822792242
1312500000,-13.69686819840815,-114.805387285267,-474.805387285267,-4.692884273471625,154.96395609508787,-205.03604390491213,-3.98016528957709,149.65936355012317,-210.34063644987683,-15.667480799505721,-121.44477434795033,-121.44477434795033
1325000000,-13.01740035663613,-121.7930380868533,-481.7930380868533,-4.356189963195588,149.18951270884523,-210.81048729115477,-3.7964742109542717,149.99882118780303,-210.00117881219697,-14.145864036581045,-131.19296889259556,-131.19296889259556
1337500000,-12.062179849754118,-123.66150706862703,-483.66150706862703,-3.6543078303442904,151.88130333758545,-208.11869666241455,-4.279997021597703,152.65542328827863,-207.34457671172137,-12.317339571029,-133.5287661544997,-133.5287661544997
1350000000,-13.215750303001123,-120.64850772171252,-480.6485077217125,-3.7137940424880873,155.60641065315383,-204.39358934684617,-5.0839184685658925,151.75294580061944,-208.24705419938056,-11.327704203329564,-128.28920258283352,-128.28920258283352
1362500000,-13.774879272305373,-118.04853182826476,-478.04853182826474,-4.651258003688398,154.00739617950524,-205.99260382049476,-5.596549547170465,144.79092909057405,-215.20907090942595,-12.009852671589085,-113.18280635666224,-113.18280635666224
1375000000,-13.898328042442035,-123.58705524291236,-483.58705524291236,-5.144895118440175,145.88193333498134,-214.11806666501866,-5.169402900437159,136.8406489182797,-223.1593510817203,-13.964260798464576,-132.2541760767653,-132.2541760767653
1387500000,-13.173615080182353,-137.75737135169928,-497.75737135169925,-4.430231677735777,137.62125366931602,-222.37874633068398,-4.409717503725133,135.99857938555252,-224.00142061444748,-14.218163642977737,-133.7383397940331,-133.7383397940331
1400000000,-11.710558259538107,-141.00704377606834,-501.0070437760684,-3.3844636839421014,134.1241036416621,-225.8758963583379,-3.846801177746449,140.6863289130776,-219.3136710869224,-12.600373059544538,-122.2056010459803,-122.2056010459803
1412500000,-12.14443865038727,-138.73873143031656,-498.73873143031653,-3.240391900508313,136.95244993377236,-223.04755006622764,-4.401233289966378,141.74425365703593,-218.25574634296407,-11.307286895780166,-132.49004340079478,-132.49004340079478
1425000000,-12.953677180978364,-144.7311876999658,-504.7311876999658,-4.571663873944187,136.8401242660987,-223.1598757339013,-5.295583892709347,137.4301683249339,-222.5698316750661,-12.668880636666284,-129.62267840097968,-129.62267840097968
1437500000,-13.049901676284485,-145.79727090623953,-505.79727090623953,-5.532713499270639,130.9117651248115,-229.0882348751885,-5.561697431872684,127.67257509755497,-232.32742490244505,-13.151840399267103,-117.2523820702599,-117.2523820702599
1450000000,-12.83272283572251,-160.33018821425017,-520.3301882142501,-5.591227315567582,119.5592986775412,-240.4407013224588,-4.511963146732333,119.95799704077601,-240.042002959224,-13.399040955294364,-124.94075147695925,-124.94075147695925
1462500000,-13.031963890387068,-156.44836222850674,-516.4483622285068,-4.644659807126583,116.54315091285596,-243.45684908714404,-3.604699188611833,119.79730025486896,-240.20269974513104,-14.203679114041707,-126.58021708565744,-126.58021708565744
1475000000,-13.085482282335029,-161.19126662444762,-521.1912666244476,-4.103557835247887,119.45368356786604,-240.54631643213395,-3.5565561223646975,123.31148084355038,-236.68851915644962,-12.722418019108249,-136.97855286596266,-136.97855286596266
1487500000,-15.611152193845053,-174.0838305316088,-534.0838305316088,-4.6409876924951,125.96317079252745,-234.03682920747255,-4.295344697400302,124.48153130645916,-235.51846869354085,-12.476552355858349,-144.54483455808892,-144.54483455808892
1500000000,-17.75524440037882,-171.27255795527444,-531.2725579552745,-6.236960208172847,125.56387448572059,-234.4361255142794,-5.327733261329669,117.8990330603547,-242.1009669396453,-13.360921528188507,-121.0104578926786,-121.0104578926786
